(0.363154) can0 174#EF7F00001F6B0509
(0.363759) can0 178#EF7F051244950521
(0.363879) can0 17C#00000000EA860580
(0.363993) can0 290#0000000000000000
(0.364108) can0 12B#0000000000000000
(0.364228) can0 174#EF7F00002A6B068F
(0.364342) can0 178#F87F062448950683
(0.364444) can0 17C#00000000EA8606A7
(0.364554) can0 290#0000000000000000
(0.364625) can0 12B#0000000000000000
(0.364695) can0 128#7FFF0300007FFF5F
(0.364803) can0 12E#4000000000000040
(0.364919) can0 174#EF7F0000336B0709
(0.365029) can0 178#008007264A9507A2
(0.365131) can0 17C#00000000FC8607A7
(0.365234) can0 290#0000000000000000
(0.365305) can0 12B#0000000000000000
(0.365375) can0 12A#1208002000000000
(0.365484) can0 550#0000000000000080
(0.365607) can0 174#EF7F0000366B083B
(0.365717) can0 178#03800820449508E2
(0.365819) can0 17C#0000000013870846
(0.365922) can0 450#0000000000000000
(0.366117) can0 290#0000000000000000
(0.366200) can0 12B#0000000000000000
(0.366270) can0 128#7FFF0300007FFF7F
(0.366372) can0 12E#4000000000000060
(0.385442) can0 174#F27F0000366B0979
(0.385858) can0 178#068009253E950935
(0.385976) can0 17C#000000002987097C
(0.386079) can0 290#0000000000000000
(0.386150) can0 12B#0000000000000000
(0.386220) can0 174#F87F0000386B0A3F
(0.386322) can0 178#068000003C950A95
(0.386425) can0 17C#000000003C870ACA
(0.386621) can0 290#0000000000000000
(0.386692) can0 12B#0000000000000000
(0.386762) can0 128#7FFF0300007FFF9F
(0.386870) can0 12E#4000000000000080
(0.388211) can0 174#F87F0000366B0B2B
(0.388404) can0 178#0380012542950B0E
(0.388645) can0 17C#000000004A870B9A
(0.391600) can0 290#0000000000000000
(0.391851) can0 12B#0000000000000000
(0.398172) can0 174#F27F0000306B0C15
(0.398404) can0 178#F27F023948950CE6
(0.398639) can0 17C#0000000042870CC5
(0.401526) can0 290#0000000000000000
(0.401774) can0 12B#0000000000000000
(0.402018) can0 128#7FFF0300007FFFBF
(0.402264) can0 12E#40000000000000A0
(0.402509) can0 12A#1208002000000000
(0.402756) can0 12C#0000000000000000
(0.403006) can0 5A0#0000000000000020
(0.403893) can0 550#00000000000000A0
(0.408174) can0 174#EF7F0000306B0D57
(0.408407) can0 178#E17F032148950D76
(0.408643) can0 17C#0000000029870D08
(0.408895) can0 450#0000000000000000
(0.411792) can0 290#0000000000000000
(0.412044) can0 12B#0000000000000000
(0.418168) can0 174#EF7F0000366B0E75
(0.418401) can0 178#DE7F042042950E42
(0.418638) can0 17C#0000000018870E88
(0.421495) can0 290#0000000000000000
(0.421744) can0 12B#0000000000000000
(0.421991) can0 128#7FFF0300007FFFDF
(0.422238) can0 12E#40000000000000C0
(0.428171) can0 174#EF7F0000396B0FEE
(0.428406) can0 178#E17F00003A950F6E
(0.428651) can0 17C#000000001F870F1F
(0.431615) can0 290#0000000000000000
(0.431863) can0 12B#0000000000000000
(0.438171) can0 174#EF7F00003C6B00DC
(0.438410) can0 178#EA7F00003995006C
(0.438651) can0 17C#000000003A87001D
(0.441515) can0 290#0000000000000000
(0.441762) can0 12B#0000000000000000
(0.442010) can0 128#7FFF0300007FFF3F
(0.442252) can0 12E#4000000000000020
(0.448171) can0 174#EF7F0000396B0148
(0.448409) can0 178#F27F012234950198
(0.448650) can0 17C#00000000518701D0
(0.451598) can0 290#0000000000000000
(0.451845) can0 12B#0000000000000000
(0.452090) can0 12A#1208002000000000
(0.453892) can0 550#00000000000000C0
(0.458229) can0 174#EF7F0000306B02EC
(0.458406) can0 178#FD7F02202C95026E
(0.458647) can0 17C#00000000598702FB
(0.458899) can0 450#0000000000000000
(0.461728) can0 290#0000000000000000
(0.461977) can0 12B#0000000000000000
(0.462227) can0 128#7FFF0300007FFF5F
(0.462477) can0 12E#4000000000000040
(0.468168) can0 174#EA7F00002D6B0358
(0.468479) can0 178#0880033229950306
(0.468651) can0 17C#000000004D8703F8
(0.471634) can0 290#0000000000000000
(0.471879) can0 12B#0000000000000000
(0.478170) can0 174#EA7F0000336B041A
(0.478403) can0 178#0E8004203195049B
(0.478715) can0 17C#000000004B8704AE
(0.481535) can0 290#0000000000000000
(0.481772) can0 12B#0000000000000000
(0.482019) can0 128#7FFF0300007FFF7F
(0.482266) can0 12E#4000000000000060
(0.488172) can0 174#EC7F0000386B0554
(0.488407) can0 178#1180052336950539
(0.488649) can0 17C#000000005E870522
(0.491615) can0 290#0000000000000000
(0.491868) can0 12B#0000000000000000
(0.498173) can0 174#EF7F00003E6B0691
(0.498414) can0 178#1F80063233950690
(0.498657) can0 17C#00000000718706B3
(0.501517) can0 290#0000000000000000
(0.501771) can0 12B#0000000000000000
(0.502012) can0 128#7FFF0300007FFF9F
(0.502258) can0 12E#4000000000000080
(0.502501) can0 12A#1208002000000000
(0.502752) can0 12C#0000000000000000
(0.503002) can0 5A0#0000000000000040
(0.503895) can0 550#0000000000000020
(0.508174) can0 174#EF7F00003E6B078C
(0.508411) can0 178#228007212995075F
(0.508658) can0 17C#000000006E870730
(0.508910) can0 450#0000000000000000
(0.511793) can0 290#0000000000000000
(0.512045) can0 12B#0000000000000000
(0.518166) can0 174#EF7F00003C6B0834
(0.518399) can0 178#1980082726950894
(0.518645) can0 17C#000000005C8708A0
(0.521555) can0 290#0000000000000000
(0.521804) can0 12B#0000000000000000
(0.522045) can0 128#7FFF0300007FFFBF
(0.522288) can0 12E#40000000000000A0
(0.528170) can0 174#EF7F00003E6B092A
(0.528405) can0 178#0E80000026950977
(0.528647) can0 17C#00000000408709AF
(0.531629) can0 290#0000000000000000
(0.531878) can0 12B#0000000000000000
(0.538169) can0 174#EC7F0000406B0AAB
(0.538403) can0 178#0B80012025950AC8
(0.538643) can0 17C#0000000023870A54
(0.541552) can0 290#0000000000000000
(0.541797) can0 12B#0000000000000000
(0.542040) can0 128#7FFF0300007FFFDF
(0.542287) can0 12E#40000000000000C0
(0.548171) can0 174#EA7F00003C6B0B27
(0.548407) can0 178#0B80000023950BF0
(0.548650) can0 17C#0000000018870BE1
(0.551648) can0 290#0000000000000000
(0.551902) can0 12B#0000000000000000
(0.552142) can0 12A#1208002000000000
(0.553895) can0 550#0000000000000040
(0.558166) can0 174#EC7F0000396B0C2E
(0.558399) can0 178#1180011231950C01
(0.558638) can0 17C#000000001C870CB4
(0.558890) can0 450#0000000000000000
(0.561779) can0 290#0000000000000000
(0.562032) can0 12B#0000000000000000
(0.562275) can0 128#7FFF0300007FFF3F
(0.562521) can0 12E#4000000000000020
(0.568166) can0 174#F27F0000396B0D8B
(0.568405) can0 178#0E80020F42950DE9
(0.568647) can0 17C#0000000023870D07
(0.571618) can0 290#0000000000000000
(0.571871) can0 12B#0000000000000000
(0.578171) can0 174#F87F0000396B0EC4
(0.578408) can0 178#068003024C950E30
(0.578650) can0 17C#0000000023870E20
(0.581518) can0 290#0000000000000000
(0.581769) can0 12B#0000000000000000
(0.582013) can0 128#7FFF0300007FFF5F
(0.582267) can0 12E#4000000000000040
(0.588171) can0 174#FA7F0000356B0F69
(0.588404) can0 178#0080040552950F10
(0.588645) can0 17C#0000000015870F10
(0.591645) can0 290#0000000000000000
(0.591895) can0 12B#0000000000000000
(0.598169) can0 174#F87F00002E6B00F0
(0.598406) can0 178#068005124F95005E
(0.598653) can0 17C#0000000002870039
(0.601625) can0 290#0000000000000000
(0.601808) can0 12B#0000000000000000
(0.602048) can0 128#7FFF0300007FFF7F
(0.602294) can0 12E#4000000000000060
(0.602546) can0 12A#1208002000000000
(0.602788) can0 12C#0000000000000000
(0.603045) can0 5A0#0000000000000060
(0.603894) can0 550#0000000000000060
(0.608167) can0 174#EF7F00002A6B01DC
(0.608404) can0 178#068006144D950197
(0.608649) can0 17C#00000000F88601EF
(0.608901) can0 450#0000000000000000
(0.611868) can0 290#0000000000000000
(0.612100) can0 12B#0000000000000000
(0.618168) can0 174#EA7F0000276B024A
(0.618402) can0 178#0080072F489502C9
(0.618649) can0 17C#00000000FC8602CE
(0.621547) can0 290#0000000000000000
(0.621788) can0 12B#0000000000000000
(0.622103) can0 128#7FFF0300007FFF9F
(0.622280) can0 12E#4000000000000080
(0.628168) can0 174#E77F0000236B03B7
(0.628404) can0 178#FA7F0802459503E0
(0.628649) can0 17C#000000000D870398
(0.631614) can0 290#0000000000000000
(0.631865) can0 12B#0000000000000000
(0.638171) can0 174#EA7F0000226B048D
(0.638407) can0 178#F87F090F4595042C
(0.638647) can0 17C#000000001B8704D6
(0.641535) can0 290#0000000000000000
(0.641779) can0 12B#0000000000000000
(0.642026) can0 128#7FFF0300007FFFBF
(0.642268) can0 12E#40000000000000A0
(0.648167) can0 174#EA7F0000256B051A
(0.648402) can0 178#FA7F0A13459505C2
(0.648644) can0 17C#000000001F8705CD
(0.651610) can0 290#0000000000000000
(0.651857) can0 12B#0000000000000000
(0.652104) can0 12A#1208002000000000
(0.653895) can0 550#0000000000000080
(0.658173) can0 174#EA7F00002B6B0634
(0.658402) can0 178#FA7F0B03419506AC
(0.658646) can0 17C#00000000238706C8
(0.658898) can0 450#0000000000000000
(0.661745) can0 290#0000000000000000
(0.661993) can0 12B#0000000000000000
(0.662244) can0 128#7FFF0300007FFFDF
(0.662487) can0 12E#40000000000000C0
(0.668168) can0 174#F57F0000306B0754
(0.668410) can0 178#FA7F0C08399507D8
(0.668650) can0 17C#000000002487075F
(0.671614) can0 290#0000000000000000
(0.671861) can0 12B#0000000000000000
(0.678174) can0 174#F87F00002E6B0818
(0.678409) can0 178#FA7F0D2F36950831
(0.678647) can0 17C#000000002C8708E8
(0.681547) can0 290#0000000000000000
(0.681787) can0 12B#0000000000000000
(0.682034) can0 128#7FFF0300007FFF3F
(0.682280) can0 12E#4000000000000020
(0.688168) can0 174#FD7F0000286B0934
(0.688403) can0 178#FA7F0E0736950944
(0.688637) can0 17C#000000003A8709E8
(0.691618) can0 290#0000000000000000
(0.691870) can0 12B#0000000000000000
(0.698168) can0 174#FD7F0000236B0A93
(0.698400) can0 178#F57F0F0D31950A64
(0.698639) can0 17C#0000000055870A19
(0.701557) can0 290#0000000000000000
(0.701808) can0 12B#0000000000000000
(0.702055) can0 128#7FFF0300007FFF5F
(0.702305) can0 12E#4000000000000040
(0.702552) can0 12A#1208002000000000
(0.702798) can0 12C#0000000000000000
(0.703052) can0 5A0#0000000000000080
(0.703899) can0 550#00000000000000A0
(0.708172) can0 174#F87F0000286B0B3A
(0.708402) can0 178#F27F000231950BE3
(0.708642) can0 17C#000000006A870BAA
(0.708897) can0 450#0000000000000000
(0.711844) can0 290#0000000000000000
(0.712095) can0 12B#0000000000000000
(0.718168) can0 174#F57F0000306B0C9B
(0.718407) can0 178#FA7F010836950C39
(0.718651) can0 17C#000000006A870CF9
(0.721535) can0 290#0000000000000000
(0.721775) can0 12B#0000000000000000
(0.722023) can0 128#7FFF0300007FFF7F
(0.722270) can0 12E#4000000000000060
(0.728170) can0 174#F57F0000366B0D83
(0.728407) can0 178#FD7F000037950DD3
(0.728643) can0 17C#000000005B870D43
(0.731598) can0 290#0000000000000000
(0.731845) can0 12B#0000000000000000
(0.738168) can0 174#F57F0000356B0E28
(0.738407) can0 178#FA7F012834950E4A
(0.738643) can0 17C#000000004E870EF5
(0.741554) can0 290#0000000000000000
(0.741797) can0 12B#0000000000000000
(0.742044) can0 128#7FFF0300007FFF9F
(0.742290) can0 12E#4000000000000080
(0.748165) can0 174#F57F0000336B0F30
(0.748404) can0 178#FD7F02202F950F63
(0.748646) can0 17C#0000000056870FFC
(0.751651) can0 290#0000000000000000
(0.751896) can0 12B#0000000000000000
(0.752143) can0 12A#1208002000000000
(0.753895) can0 550#00000000000000C0
(0.758170) can0 174#F57F0000336B008B
(0.758409) can0 178#008003212C9500E5
(0.758654) can0 17C#000000006A870065
(0.758903) can0 450#0000000000000000
(0.761786) can0 290#0000000000000000
(0.762034) can0 12B#0000000000000000
(0.762280) can0 128#7FFF0300007FFFBF
(0.762535) can0 12E#40000000000000A0
(0.768167) can0 174#EF7F00002E6B01DA
(0.768405) can0 178#FD7F04232C950192
(0.768648) can0 17C#00000000778701E5
(0.771614) can0 290#0000000000000000
(0.771862) can0 12B#0000000000000000
(0.778171) can0 174#EF7F00002A6B02FB
(0.778410) can0 178#F87F05232B950261
(0.778651) can0 17C#00000000718702C7
(0.781543) can0 290#0000000000000000
(0.781784) can0 12B#0000000000000000
(0.782032) can0 128#7FFF0300007FFFDF
(0.782275) can0 12E#40000000000000C0
(0.788167) can0 174#EF7F0000286B03E5
(0.788406) can0 178#FD7F06222B95036B
(0.788644) can0 17C#00000000618703C2
(0.791627) can0 290#0000000000000000
(0.791876) can0 12B#0000000000000000
(0.798164) can0 174#EF7F0000286B04B6
(0.798403) can0 178#FD7F07242E9504B2
(0.798645) can0 17C#00000000558704BF
(0.801525) can0 290#0000000000000000
(0.801773) can0 12B#0000000000000000
(0.802021) can0 128#7FFF0300007FFF3F
(0.802267) can0 12E#4000000000000020
(0.802511) can0 12A#1208002000000000
(0.802762) can0 12C#0000000000000000
(0.803010) can0 5A0#00000000000000A0
(0.803899) can0 550#0000000000000020
(0.808168) can0 174#EA7F00002D6B0516
(0.808410) can0 178#038008232F950509
(0.808653) can0 17C#000000004E87053A
(0.808902) can0 450#0000000000000000
(0.811812) can0 290#0000000000000000
(0.812060) can0 12B#0000000000000000
(0.818168) can0 174#E77F0000306B064A
(0.818407) can0 178#06800920339506D8
(0.818647) can0 17C#000000004787069E
(0.821560) can0 290#0000000000000000
(0.821807) can0 12B#0000000000000000
(0.822058) can0 128#7FFF0300007FFF5F
(0.822308) can0 12E#4000000000000040
(0.828167) can0 174#E47F0000336B073C
(0.828406) can0 178#00800A213995073A
(0.828647) can0 17C#000000003D8707C4
(0.831732) can0 290#0000000000000000
(0.831977) can0 12B#0000000000000000
(0.838165) can0 174#EA7F00002E6B081B
(0.838399) can0 178#F27F0B293F950868
(0.838640) can0 17C#000000003F87087C
(0.841524) can0 290#0000000000000000
(0.841773) can0 12B#0000000000000000
(0.842020) can0 128#7FFF0300007FFF7F
(0.842267) can0 12E#4000000000000060
(0.848169) can0 174#F27F00002A6B096B
(0.848406) can0 178#E77F0000429509B7
(0.848645) can0 17C#00000000428709AC
(0.851599) can0 290#0000000000000000
(0.851846) can0 12B#0000000000000000
(0.852093) can0 12A#1208002000000000
(0.853899) can0 550#0000000000000040
(0.858169) can0 174#F57F0000286B0AC1
(0.858408) can0 178#F57F000042950A93
(0.858644) can0 17C#0000000048870A84
(0.858896) can0 450#0000000000000000
(0.861739) can0 290#0000000000000000
(0.861987) can0 12B#0000000000000000
(0.862233) can0 128#7FFF0300007FFF9F
(0.862479) can0 12E#4000000000000080
(0.868167) can0 174#F87F00002D6B0BB3
(0.868402) can0 178#068000FF37950BAE
(0.868638) can0 17C#0000000048870B99
(0.871645) can0 290#0050000000000000
(0.871891) can0 12B#0000000000012F76
(0.878183) can0 174#F57F00002B6B0C03
(0.878415) can0 178#148000002C950CC0
(0.878649) can0 17C#000000003C870C84
(0.881548) can0 290#0020000000000000
(0.881788) can0 12B#0000000000011F75
(0.882023) can0 128#1388030000EC78A2
(0.882272) can0 12E#00000000000000A0
(0.888168) can0 174#EA7F0000286B0D77
(0.888427) can0 178#1680012029950DCE
(0.888643) can0 17C#000000002A870D84
(0.891615) can0 290#0030000000000000
(0.891868) can0 12B#0000000000011F76
(0.898162) can0 174#E47F00002A6B0E52
(0.898398) can0 178#118002222F950EFB
(0.898684) can0 17C#000000001F870E02
(0.901561) can0 290#0040000000000000
(0.901805) can0 12B#0000000000011F76
(0.902042) can0 128#1388030000EC78C2
(0.902285) can0 12E#00000000000000C0
(0.902535) can0 12A#1208002000000000
(0.902782) can0 12C#0000000000000000
(0.903021) can0 5A0#00692000000000C9
(0.903902) can0 550#0000000000000060
(0.907849) can0 300#0F00000000000000
(0.908166) can0 174#DE7F0000306B0FE6
(0.908401) can0 178#0E80032636950FBC
(0.908639) can0 17C#0000000019870F1A
(0.908980) can0 450#0000000000000000
(0.911835) can0 290#0040000000000000
(0.912075) can0 12B#0000000000012F75
(0.918168) can0 174#E47F0000386B00EF
(0.918402) can0 178#0B8004253C95008D
(0.918640) can0 17C#00000000198700A1
(0.921508) can0 290#0020000000000000
(0.921760) can0 12B#0000000000011F76
(0.921993) can0 128#1388030000EC7822
(0.922243) can0 12E#0000000000000020
(0.928168) can0 174#EF7F0000386B01C7
(0.928403) can0 178#0B80052042950168
(0.928643) can0 17C#00000000198701BC
(0.931566) can0 290#0030000000000000
(0.931813) can0 12B#0000000000011F75
(0.938168) can0 174#F87F0000356B0252
(0.938404) can0 178#03800621449502BB
(0.938649) can0 17C#000000001687021D
(0.941505) can0 290#0010000000000000
(0.941754) can0 12B#0000000000011F76
(0.941987) can0 128#1388030000EC7842
(0.942237) can0 12E#0000000000000040
(0.948176) can0 174#00800000366B03B1
(0.948413) can0 178#FD7F07213F9503A5
(0.948653) can0 17C#000000001B870385
(0.951609) can0 290#0040000000000000
(0.951859) can0 12B#0000000000012F76
(0.952100) can0 12A#1208012000000000
(0.953901) can0 550#0000000000000080
(0.958171) can0 174#FA7F0000406B0467
(0.958407) can0 178#FD7F08203795041B
(0.958654) can0 17C#00000000298704FD
(0.958906) can0 450#0000000000000000
(0.961736) can0 290#0060000000000000
(0.961983) can0 12B#0000000000011F75
(0.962213) can0 128#1388030000EC7862
(0.962460) can0 12E#0000000000000060
(0.968168) can0 174#F57F0000446B0520
(0.968396) can0 178#FA7F092531950534
(0.968642) can0 17C#000000003487057D
(0.971604) can0 290#0020000000000000
(0.971857) can0 12B#0000000000011F76
(0.978172) can0 174#F87F00003C6B06A5
(0.978405) can0 178#F87F0A292F9506D4
(0.978649) can0 17C#000000003487065A
(0.981548) can0 290#0040000000000000
(0.981792) can0 12B#0000000000012F76
(0.982023) can0 128#1388030000EC7882
(0.982269) can0 12E#0000000000000080
(0.988175) can0 174#F87F0000306B07B2
(0.988419) can0 178#FD7F000031950704
(0.988668) can0 17C#000000002F8707DF
(0.991614) can0 290#0030000000000000
(0.991865) can0 12B#0000000000011F75
(0.998166) can0 174#F57F0000286B08FB
(0.998400) can0 178#00800120399508D5
(1.001101) can0 17C#00000000328708F9
(1.001515) can0 290#0050000000000000
(1.001761) can0 12B#0000000000011F76
(1.011358) can0 128#1388030000EC78A2
(1.011483) can0 12E#00000000000000A0
(1.011600) can0 12A#1208012000000000
(1.011670) can0 12C#0000000000000000
(1.011740) can0 5A0#0069200000000029
(1.011851) can0 550#00000000000000A0
(1.021585) can0 300#0F00000000000000
(1.021675) can0 174#EC7F00002B6B095C
(1.021789) can0 178#038000003995090F
(1.021896) can0 17C#000000003F870961
(1.031826) can0 450#0000000000000000
(1.031923) can0 290#0050000000000000
(1.031994) can0 12B#0000000000012F75
(1.032100) can0 174#EA7F0000366B0A35
(1.032202) can0 178#FA7F012031950A2B
(1.042075) can0 17C#0000000048870A84
(1.042201) can0 290#0040000000000000
(1.042313) can0 12B#0000000000011F76
(1.052312) can0 128#1388030000EC78C2
(1.052437) can0 12E#00000000000000C0
(1.052548) can0 174#EF7F0000416B0BDE
(1.062576) can0 178#F27F022126950B55
(1.062701) can0 17C#0000000048870B99
(1.062804) can0 290#0040000000000000
(1.062875) can0 12B#0000000000011F76
(1.062944) can0 174#F87F0000416B0CBA
(1.063046) can0 178#F87F032420950CD2
(1.072798) can0 17C#0000000045870C4F
(1.072925) can0 290#0030000000000000
(1.073028) can0 12B#0000000000012F75
(1.083041) can0 128#1388030000EC7822
(1.083166) can0 12E#0000000000000020
(1.083269) can0 174#F57F00003C6B0D8C
(1.093284) can0 178#0080042F1D950D3D
(1.093415) can0 17C#000000004B870D5B
(1.093519) can0 290#0040000000000000
(1.103535) can0 12B#0000000000011F76
(1.103661) can0 12A#1208012000000000
(1.103731) can0 550#00000000000000C0
(1.103834) can0 174#EF7F0000336B0EFC
(1.113773) can0 178#0880051220950E2F
(1.113904) can0 17C#0000000058870EE8
(1.114007) can0 450#0000000000000000
(1.114078) can0 290#0050000000000000
(1.114180) can0 12B#0000000000012F76
(1.124029) can0 128#1388030000EC7842
(1.124155) can0 12E#0000000000000040
(1.124258) can0 174#EC7F0000306B0F8A
(1.134256) can0 178#0E80062429950FDA
(1.134382) can0 17C#0000000063870F5D
(1.134485) can0 290#0020000000000000
(1.144499) can0 12B#0000000000011F75
(1.144633) can0 174#EC7F0000306B0031
(1.144736) can0 178#118007262E950043
(1.154742) can0 17C#000000005E87004B
(1.154874) can0 290#0030000000000000
(1.154977) can0 12B#0000000000011F76
(1.164985) can0 128#1388030000EC7862
(1.165110) can0 12E#0000000000000060
(1.165213) can0 174#EF7F0000336B0147
(1.175241) can0 178#0E8008202C9501AD
(1.175367) can0 17C#000000004E87014E
(1.175478) can0 290#0050000000000000
(1.175597) can0 12B#0000000000012F75
(1.185471) can0 174#EF7F0000336B0260
(1.185605) can0 178#118009252B95025C
(1.185707) can0 17C#00000000458702E9
(1.195714) can0 290#0050000000000000
(1.195804) can0 12B#0000000000011F76
(1.195911) can0 128#1388030000EC7882
(1.196013) can0 12E#0000000000000080
(1.205957) can0 12A#1208012000000000
(1.206046) can0 12C#0000000000000000
(1.206117) can0 5A0#0069200000000049
(1.206224) can0 550#0000000000000020
(1.206328) can0 300#0F00000000000000
(1.206399) can0 174#EA7F0000366B03C0
(1.216200) can0 178#168000002E9503C2
(1.216326) can0 17C#0000000038870339
(1.216428) can0 450#0000000000000000
(1.216500) can0 290#0040000000000000
(1.226456) can0 12B#0000000000012F76
(1.226590) can0 174#EA7F0000356B041F
(1.226692) can0 178#19800125339504A3
(1.226795) can0 17C#0000000032870465
(1.236685) can0 290#0040000000000000
(1.236776) can0 12B#0000000000011F75
(1.236885) can0 128#1388030000EC78A2
(1.236987) can0 12E#00000000000000A0
(1.246931) can0 174#EF7F0000336B0533
(1.247062) can0 178#0B8002393695057D
(1.247166) can0 17C#000000002E87056A
(1.257171) can0 290#0040000000000000
(1.257262) can0 12B#0000000000012F76
(1.257368) can0 174#F87F0000366B06AA
(1.257470) can0 178#008003213F95063F
(1.267414) can0 17C#0000000026870641
(1.267549) can0 290#0040000000000000
(1.267620) can0 12B#0000000000011F76
(1.267722) can0 128#1388030000EC78C2
(1.277671) can0 12E#00000000000000C0
(1.277798) can0 174#F87F00003B6B0732
(1.277900) can0 178#0680042047950723
(1.278003) can0 17C#000000002C870753
(1.287902) can0 290#0040000000000000
(1.287992) can0 12B#0000000000012F76
(1.288099) can0 12A#1208012000000000
(1.288177) can0 550#0000000000000040
(1.288281) can0 174#EF7F0000396B08BD
(1.298143) can0 178#1C80000048950830
(1.298276) can0 17C#00000000428708B1
(1.298379) can0 450#0000000000000000
(1.298457) can0 290#0040000000000000
(1.298536) can0 12B#0000000000011F75
(1.308386) can0 128#1388030000EC7822
(1.308518) can0 12E#0000000000000020
(1.308629) can0 174#EC7F0000396B0947
(1.318637) can0 178#27800000429509C1
(1.318770) can0 17C#00000000508709B7
(1.318879) can0 290#0030000000000000
(1.328875) can0 12B#0000000000012F76
(1.329001) can0 174#EA7F0000356B0AB9
(1.329103) can0 178#228001223F950A18
(1.339129) can0 17C#0000000048870A84
(1.339255) can0 290#0040000000000000
(1.339359) can0 12B#0000000000011F76
(1.339461) can0 128#1388030000EC7842
(1.349358) can0 12E#0000000000000040
(1.349485) can0 174#EA7F0000336B0BA1
(1.349595) can0 178#1C80022039950B4E
(1.359602) can0 17C#000000002E870BCC
(1.359729) can0 290#0030000000000000
(1.359832) can0 12B#0000000000012F76
(1.369844) can0 174#EC7F0000306B0CAD
(1.369970) can0 178#1680033233950C12
(1.370072) can0 17C#0000000013870C32
(1.380087) can0 290#0040000000000000
(1.380214) can0 12B#0000000000011F76
(1.380317) can0 128#1388030000EC7862
(1.390343) can0 12E#0000000000000060
(1.390470) can0 12A#1208012000000000
(1.390548) can0 12C#0000000000000000
(1.390618) can0 5A0#0069200000000069
(1.390722) can0 550#0000000000000060
(1.390826) can0 300#0F00000000000000
(1.390897) can0 174#F57F00002D6B0D1B
(1.400574) can0 178#1480042033950DBC
(1.400700) can0 17C#0000000013870D2F
(1.400810) can0 450#0000000000000000
(1.400888) can0 290#0010000000000000
(1.410816) can0 12B#0000000000012F76
(1.410942) can0 174#F57F00002D6B0E3C
(1.411045) can0 178#0380052333950E7C
(1.421059) can0 17C#000000002C870EA6
(1.421185) can0 290#0030000000000000
(1.421289) can0 12B#0000000000012F76
(1.421359) can0 128#1388030000EC7882
(1.431302) can0 12E#0000000000000080
(1.431428) can0 174#EF7F0000336B0FE1
(1.431538) can0 178#F57F063231950F17
(1.441565) can0 17C#000000004D870F64
(1.441692) can0 290#0030000000000000
(1.441771) can0 12B#0000000000011F76
(1.441876) can0 174#EA7F00003B6B0062
(1.441986) can0 178#EA7F0721379500B9
(1.451787) can0 17C#000000005887004E
(1.451921) can0 290#0050000000000000
(1.452024) can0 12B#0000000000012F76
(1.462036) can0 128#1388030000EC78A2
(1.462162) can0 12E#00000000000000A0
(1.462273) can0 174#E47F00003E6B01F7
(1.472273) can0 178#EA7F082742950170
(1.472399) can0 17C#00000000558701D6
(1.472502) can0 290#0030000000000000
(1.482516) can0 12B#0000000000012F76
(1.482614) can0 12A#1208012000000000
(1.482684) can0 550#0000000000000080
(1.482791) can0 174#EA7F00003B6B0258
(1.482901) can0 178#EC7F000048950242
(1.492762) can0 17C#000000004E870269
(1.492893) can0 450#0000000000000000
(1.492964) can0 290#0050000000000000
(1.493068) can0 12B#0000000000011F76
(1.493169) can0 128#1388030000EC78C2
(1.503024) can0 12E#00000000000000C0
(1.503151) can0 174#F27F0000366B03AB
(1.503254) can0 178#F27F012045950342
(1.513245) can0 17C#000000004287037E
(1.513372) can0 290#0050000000000000
(1.513443) can0 12B#0000000000012F76
(1.513554) can0 174#F87F0000336B0419
(1.523488) can0 178#F57F0000399504FD
(1.523622) can0 17C#0000000034870460
(1.523725) can0 290#0050000000000000
(1.523796) can0 12B#0000000000012F76
(1.523866) can0 128#1388030000EC7822
(1.533731) can0 12E#0000000000000020
(1.533858) can0 174#FD7F00002E6B05AD
(1.533960) can0 178#F87F011233950561
(1.543974) can0 17C#000000002E87056A
(1.544101) can0 290#0050000000000000
(1.544171) can0 12B#0000000000011F76
(1.544274) can0 174#FD7F0000286B068F
(1.554231) can0 178#FD7F020F319506A5
(1.554357) can0 17C#000000002F8706C2
(1.554460) can0 290#0040000000000000
(1.554578) can0 12B#0000000000012F76
(1.564460) can0 128#1388030000EC7842
(1.564593) can0 12E#0000000000000040
(1.564696) can0 12A#1208012000000000
(1.564766) can0 12C#0000000000000000
(1.564837) can0 5A0#0069200000000089
(1.574703) can0 550#00000000000000A0
(1.574830) can0 300#0F00000000000000
(1.574902) can0 174#FA7F00002B6B0790
(1.575004) can0 178#00800302319507DB
(1.584946) can0 17C#000000003F8707C7
(1.585073) can0 450#0000000000000000
(1.585144) can0 290#0050000000000000
(1.585247) can0 12B#0000000000012F76
(1.585317) can0 174#EF7F0000336B08B2
(1.595189) can0 178#038004052F950869
(1.595315) can0 17C#0000000051870825
(1.595418) can0 290#0060000000000000
(1.605445) can0 12B#0000000000012F76
(1.605543) can0 128#1388030000EC7862
(1.605648) can0 12E#0000000000000060
(1.605751) can0 174#EC7F0000366B09C1
(1.605854) can0 178#068005122F9509FB
(1.615675) can0 17C#000000005B870937
(1.615801) can0 290#0040000000000000
(1.615905) can0 12B#0000000000011F76
(1.625919) can0 174#EA7F0000366B0A35
(1.626045) can0 178#0880061434950A92
(1.626155) can0 17C#0000000061870A37
(1.636161) can0 290#0040000000000000
(1.636251) can0 12B#0000000000012F76
(1.636358) can0 128#1388030000EC7882
(1.636459) can0 12E#0000000000000080
(1.646404) can0 174#EA7F0000386B0B21
(1.646536) can0 178#0B80072F37950BC7
(1.646639) can0 17C#000000005B870B0D
(1.656660) can0 290#0040000000000000
(1.656750) can0 12B#0000000000012F76
(1.656820) can0 12A#1208012000000000
(1.656891) can0 550#00000000000000C0
(1.656998) can0 174#EF7F00003B6B0CCA
(1.657100) can0 178#0880080233950C0C
(1.657204) can0 17C#000000004B870C46
(1.666892) can0 450#0000000000000000
(1.666983) can0 290#0030000000000000
(1.667090) can0 12B#0000000000012F76
(1.667160) can0 128#1388030000EC78A2
(1.667262) can0 12E#00000000000000A0
(1.677132) can0 174#F57F00003B6B0D06
(1.677259) can0 178#0380090F2E950D9C
(1.677361) can0 17C#000000003F870D15
(1.687375) can0 290#0030000000000000
(1.687466) can0 12B#0000000000011F76
(1.687580) can0 174#F27F0000356B0EA6
(1.687682) can0 178#00800A132C950E16
(1.697618) can0 17C#000000003D870E31
(1.697750) can0 290#0030000000000000
(1.697822) can0 12B#0000000000012F76
(1.697925) can0 128#1388030000EC78C2
(1.707870) can0 12E#00000000000000C0
(1.707997) can0 174#EF7F0000316B0FE2
(1.708099) can0 178#FA7F0B0331950F11
(1.718118) can0 17C#0000000045870F68
(1.718253) can0 290#0050000000000000
(1.718356) can0 12B#0000000000012F76
(1.718434) can0 174#EF7F0000366B00D3
(1.718544) can0 178#00800C08369500C5
(1.728347) can0 17C#00000000538700CE
(1.728482) can0 290#0040000000000000
(1.728593) can0 12B#0000000000012F76
(1.728671) can0 128#1388030000EC7822
(1.738592) can0 12E#0000000000000020
(1.738726) can0 12A#1208012000000000
(1.738796) can0 12C#0000000000000000
(1.738867) can0 5A0#00692000000000A9
(1.738971) can0 550#0000000000000020
(1.748833) can0 300#0F00000000000000
(1.748924) can0 174#EF7F00003B6B014B
(1.749030) can0 178#03800D2F3C9501E4
(1.749133) can0 17C#0000000058870153
(1.759076) can0 450#0000000000000000
(1.759167) can0 290#0050000000000000
(1.759274) can0 12B#0000000000012F76
(1.759344) can0 174#EF7F00003C6B02E6
(1.759447) can0 178#FD7F0E073F950286
(1.769333) can0 17C#0000000050870278
(1.769459) can0 290#0050000000000000
(1.769542) can0 12B#0000000000012F76
(1.769617) can0 128#1388030000EC7842
(1.769719) can0 12E#0000000000000040
(1.769822) can0 174#EF7F0000396B0372
(1.779563) can0 178#EC7F0F0D3F9503AE
(1.779689) can0 17C#000000004287037E
(1.779792) can0 290#0050000000000000
(1.779864) can0 12B#0000000000011F76
(1.789805) can0 174#F27F0000386B04F1
(1.789931) can0 178#EC7F0002399504EC
(1.790034) can0 17C#000000003C87046C
(1.800048) can0 290#0040000000000000
(1.800175) can0 12B#0000000000012F76
(1.800278) can0 128#1388030000EC7862
(1.810291) can0 12E#0000000000000060
(1.810418) can0 174#F57F0000396B05ED
(1.810520) can0 178#F87F010834950575
(1.820555) can0 17C#0000000040870533
(1.820681) can0 290#0050000000000000
(1.820785) can0 12B#0000000000012F76
(1.820855) can0 12A#1208012000000000
(1.820925) can0 550#0000000000000040
(1.821029) can0 174#F57F00003B6B06C9
(1.830777) can0 178#FA7F00003995069B
(1.830903) can0 17C#000000003F8706DA
(1.831006) can0 450#0000000000000000
(1.831078) can0 290#0040000000000000
(1.841020) can0 12B#0000000000012F76
(1.841109) can0 128#1388030000EC7882
(1.841221) can0 12E#0000000000000080
(1.841327) can0 174#F57F0000366B0751
(1.851263) can0 178#F87F01283F950785
(1.851389) can0 17C#000000003887074D
(1.851492) can0 290#0020000000000000
(1.861506) can0 12B#0000000000012F76
(1.861603) can0 174#F57F00002D6B0872
(1.861717) can0 178#F57F02203F9508FA
(1.861819) can0 17C#00000000328708F9
(1.871751) can0 290#0040000000000000
(1.871891) can0 12B#0000000000012F76
(1.871961) can0 128#1388030000EC78A2
(1.872063) can0 12E#00000000000000A0
(1.872164) can0 174#EF7F0000256B09B2
(1.882013) can0 178#F57F032139950915
(1.882139) can0 17C#000000003787096D
(1.882250) can0 290#0050000000000000
(1.892235) can0 12B#0000000000012F76
(1.892324) can0 174#E77F00002A6B0AC1
(1.892431) can0 178#F57F042334950A9B
(1.892541) can0 17C#0000000032870AC3
(1.902483) can0 290#0050000000000000
(1.902581) can0 12B#0000000000012F76
(1.902651) can0 128#1388030000EC78C2
(1.902765) can0 12E#00000000000000C0
(1.902870) can0 12A#1208012000000000
(1.902948) can0 12C#0000000000000000
(1.903018) can0 5A0#00692000000000C9
(1.912720) can0 550#0000000000000060
(1.912848) can0 300#0F00000000000000
(1.912919) can0 174#E47F0000366B0B29
(1.913021) can0 178#F87F052334950B0A
(1.922963) can0 17C#000000002A870BCA
(1.923090) can0 450#0000000000000000
(1.923161) can0 290#0040000000000000
(1.923265) can0 12B#0000000000011F76
(1.933220) can0 174#E47F00003C6B0C75
(1.933346) can0 178#FD7F06223C950C42
(1.933448) can0 17C#0000000035870C07
(1.933559) can0 290#0040000000000000
(1.933630) can0 12B#0000000000012F77
(1.943449) can0 128#1388030000EC7822
(1.943580) can0 12E#0000000000000020
(1.943683) can0 174#EA7F00003E6B0D6A
(1.953692) can0 178#F87F07243E950D6B
(1.953818) can0 17C#0000000051870D4C
(1.953930) can0 290#0040000000000000
(1.954001) can0 12B#0000000000012F76
(1.963936) can0 174#F57F0000416B0E66
(1.964062) can0 178#F57F08233E950E22
(1.964164) can0 17C#0000000063870E40
(1.974178) can0 290#0040000000000000
(1.974269) can0 12B#0000000000012F76
(1.974338) can0 128#1388030000EC7842
(1.974444) can0 12E#0000000000000040
(1.974556) can0 174#FA7F0000406B0FA8
(1.984435) can0 178#F57F09203E950FEF
(1.984568) can0 17C#0000000056870FFC
(1.984671) can0 290#0030000000000000
(1.984775) can0 12B#0000000000012F77
(1.994664) can0 12A#1208012000000000
(1.994753) can0 550#0000000000000080
(1.994867) can0 174#FA7F00003B6B00DB
(1.994970) can0 178#EF7F0A213A9500A0
(2.004909) can0 17C#000000003D870097
(2.005035) can0 450#0000000000000000
(2.005105) can0 290#0030000000000000
(2.005174) can0 12B#0000000000012F76
(2.005276) can0 128#1388030000EC7862
(2.015150) can0 12E#0000000000000060
(2.015276) can0 174#EF7F0000366B01CE
(2.015378) can0 178#E77F0B2939950115
(2.025393) can0 17C#000000002A870118
(2.025519) can0 290#0020000000000000
(2.025630) can0 12B#0000000000012F76
(2.025699) can0 174#EC7F00002E6B021A
(2.035649) can0 178#E77F0000379502B9
(2.035775) can0 17C#000000002C87023A
(2.035880) can0 290#0050000000000000
(2.035983) can0 12B#0000000000012F77
(2.045884) can0 128#1388030000EC7882
(2.046009) can0 12E#0000000000000080
(2.046112) can0 174#EA7F0000236B0351
(2.056122) can0 178#EA7F0000369503CD
(2.056252) can0 17C#00000000378703BF
(2.056357) can0 290#0040000000000000
(2.066365) can0 12B#0000000000012F76
(2.066491) can0 174#EC7F00001F6B04F3
(2.066601) can0 178#EF7F00FF31950486
(2.076609) can0 17C#00000000378704EC
(2.076735) can0 290#0050000000000000
(2.076838) can0 12B#0000000000013F76
(2.086851) can0 128#1388030000EC78A2
(2.086976) can0 12E#00000000000000A0
(2.087078) can0 12A#1208012000000000
(2.087148) can0 12C#0000000000000000
(2.087218) can0 5A0#0069200000000029
(2.097107) can0 550#00000000000000A0
(2.097234) can0 300#0F00000000000000
(2.097305) can0 174#F27F0000256B0571
(2.097407) can0 178#FA7F00002E95052E
(2.097509) can0 17C#000000002F8705E5
(2.107336) can0 450#0000000000000000
(2.107427) can0 290#0030000000000000
(2.107543) can0 12B#0000000000012F77
(2.107646) can0 174#F57F0000316B06C6
(2.117581) can0 178#068001202C950631
(2.117707) can0 17C#00000000378706D6
(2.117810) can0 290#0040000000000000
(2.127822) can0 12B#0000000000012F76
(2.127949) can0 128#1388030000EC78C2
(2.128051) can0 12E#00000000000000C0
(2.138065) can0 174#F27F00003B6B075A
(2.138198) can0 178#088002222995073D
(2.138300) can0 17C#000000004A870706
(2.148322) can0 290#0030000000000000
(2.148457) can0 12B#0000000000012F77
(2.148568) can0 174#EF7F0000386B0832
(2.148678) can0 178#00800326269508F6
(2.158553) can0 17C#00000000508708AA
(2.158687) can0 290#0040000000000000
(2.158790) can0 12B#0000000000012F76
(2.168794) can0 128#1388030000EC7822
(2.168920) can0 12E#0000000000000020
(2.169023) can0 174#EF7F00002E6B0932
(2.179037) can0 178#FD7F042528950915
(2.179163) can0 17C#000000004E8709A6
(2.179266) can0 290#0040000000000000
(2.179337) can0 12B#0000000000012F77
(2.189280) can0 12A#1208012000000000
(2.189370) can0 550#00000000000000C0
(2.189477) can0 174#EF7F0000236B0A90
(2.189587) can0 178#FD7F05202F950A01
(2.199545) can0 17C#0000000053870A1C
(2.199671) can0 450#0000000000000000
(2.199742) can0 290#0050000000000000
(2.199846) can0 12B#0000000000012F77
(2.199916) can0 128#1388030000EC7842
(2.200017) can0 12E#0000000000000040
(2.209766) can0 174#EF7F00001D6B0BAC
(2.209899) can0 178#FD7F062136950BA4
(2.210003) can0 17C#0000000053870B01
(2.220009) can0 290#0040000000000000
(2.220136) can0 12B#0000000000012F76
(2.220239) can0 174#EA7F0000226B0C65
(2.230252) can0 178#FD7F07212F950C06
(2.230378) can0 17C#000000004A870CC9
(2.230481) can0 290#0020000000000000
(2.240495) can0 12B#0000000000013F77
(2.240627) can0 128#1388030000EC7862
(2.240729) can0 12E#0000000000000060
(2.250741) can0 174#E47F00002D6B0DFF
(2.250871) can0 178#0B8008202C950D05
(2.250974) can0 17C#000000003D870D16
(2.251075) can0 290#0030000000000000
(2.260997) can0 12B#0000000000012F77
(2.261123) can0 174#E17F0000386B0E7D
(2.261225) can0 178#1980092531950E05
(2.271224) can0 17C#0000000032870EB7
(2.271350) can0 290#0040000000000000
(2.271454) can0 12B#0000000000012F77
(2.271524) can0 128#1388030000EC7882
(2.281467) can0 12E#0000000000000080
(2.281610) can0 12A#1208012000000000
(2.281679) can0 12C#0000000000000000
(2.281758) can0 5A0#0069200000000049
(2.281867) can0 550#0000000000000020
(2.291710) can0 300#0F00000000000000
(2.291813) can0 174#E47F0000396B0FDB
(2.291924) can0 178#19800A2936950FFE
(2.292027) can0 17C#000000002F870F37
(2.301960) can0 450#0000000000000000
(2.302051) can0 290#0040000000000000
(2.302121) can0 12B#0000000000012F77
(2.302199) can0 174#E47F0000366B00E6
(2.302305) can0 178#118000003A950075
(2.302407) can0 17C#000000003587009B
(2.312209) can0 290#0050000000000000
(2.312336) can0 12B#0000000000012F77
(2.312406) can0 128#1388030000EC78A2
(2.312508) can0 12E#00000000000000A0
(2.312619) can0 174#EC7F0000356B01A5
(2.322439) can0 178#0B8001203F950110
(2.322572) can0 17C#000000004887014B
(2.322675) can0 290#0010000000000000
(2.332681) can0 12B#0000000000012F77
(2.332771) can0 174#F27F0000366B02B6
(2.332880) can0 178#0B800000449502DF
(2.332982) can0 17C#000000005E870271
(2.342927) can0 290#0040000000000000
(2.343054) can0 12B#0000000000013F77
(2.343157) can0 128#1388030000EC78C2
(2.353167) can0 12E#00000000000000C0
(2.353294) can0 174#F57F00003C6B032A
(2.353396) can0 178#16800120489503B7
(2.363424) can0 17C#00000000618703C2
(2.363558) can0 290#0050000000000000
(2.363662) can0 12B#0000000000012F77
(2.363764) can0 12A#1208012000000000
(2.363839) can0 550#0000000000000040
(2.373653) can0 174#F57F0000416B04B4
(2.373779) can0 178#1C8002214A9504AC
(2.373884) can0 17C#0000000050870436
(2.383898) can0 450#0000000000000000
(2.383988) can0 290#0050000000000000
(2.384059) can0 12B#0000000000012F77
(2.384129) can0 128#1388030000EC7822
(2.384235) can0 12E#0000000000000020
(2.384338) can0 174#FD7F00003B6B053C
(2.394139) can0 178#1F8003244795056A
(2.394265) can0 17C#00000000378705F1
(2.394368) can0 290#0020000000000000
(2.404382) can0 12B#0000000000012F77
(2.404472) can0 174#00800000306B06DD
(2.404586) can0 178#1680042F42950666
(2.404688) can0 17C#00000000298706C7
(2.414639) can0 290#0040000000000000
(2.414766) can0 12B#0000000000013F77
(2.414871) can0 128#1388030000EC7842
(2.414972) can0 12E#0000000000000040
(2.424870) can0 174#008000002D6B075D
(2.424996) can0 178#0E8005123F950797
(2.425099) can0 17C#000000002C870753
(2.435111) can0 290#0040000000000000
(2.435201) can0 12B#0000000000012F77
(2.435308) can0 174#00800000306B087B
(2.435410) can0 178#0680062445950801
(2.445354) can0 17C#00000000388708F6
(2.445486) can0 290#0050000000000000
(2.445603) can0 12B#0000000000012F77
(2.445674) can0 128#1388030000EC7862
(2.455598) can0 12E#0000000000000060
(2.455725) can0 12A#1208012000000000
(2.455795) can0 12C#0000000000000000
(2.455866) can0 5A0#0069200000000069
(2.455969) can0 550#0000000000000060
(2.465840) can0 300#0F00000000000000
(2.465931) can0 174#00800000316B09E9
(2.466037) can0 178#0080072650950913
(2.466140) can0 17C#00000000408709AF
(2.476096) can0 450#0000000000000000
(2.476187) can0 290#0040000000000000
(2.476295) can0 12B#0000000000012F77
(2.476365) can0 174#00800000306B0A41
(2.476467) can0 290#0040000000000000
(2.476546) can0 12B#0000000000013F77
(2.476648) can0 128#1388030000EC7882
(2.486326) can0 12E#0000000000000080
(2.486452) can0 174#038000002D6B0B26
(2.486562) can0 178#118009254C950B73
(2.496570) can0 290#0040000000000000
(2.496661) can0 12B#0000000000012F77
(2.496767) can0 174#00800000316B0C80
(2.496872) can0 178#1180000042950CAD
(2.506812) can0 290#0040000000000000
(2.506902) can0 12B#0000000000012F77
(2.506972) can0 128#1388030000EC78A2
(2.507078) can0 12E#00000000000000A0
(2.507181) can0 290#0010000000000000
(2.517055) can0 12B#0000000000012F77
(2.517144) can0 12A#1208012000000000
(2.517214) can0 290#0050000000000000
(2.517321) can0 12B#0000000000013F77
(2.517424) can0 128#1388030000EC78C2
(2.527311) can0 12E#00000000000000C0
(2.527438) can0 12B#0000000000012F77
(2.527549) can0 174#F87F0000356B0068
(2.527651) can0 178#0380042036950083
(2.537548) can0 17C#00000000458700D3
(2.537675) can0 290#0040000000000000
(2.537779) can0 12E#0000000000000020
(2.547783) can0 174#F57F0000316B0195
(2.547910) can0 178#00800000449501CD
(2.548012) can0 174#EA7F0000336B0254
(2.558026) can0 178#F27F00004A9502F9
(2.558161) can0 17C#000000003487022E
(2.558264) can0 290#0020000000000000
(2.568269) can0 12C#0000000000000000
(2.568360) can0 5A0#0069200000000089
(2.568475) can0 550#00000000000000A0
(2.568587) can0 300#0F00000000000000
(2.568666) can0 174#E77F0000386B032F
(2.578526) can0 178#E77F0122479503EB
(2.578668) can0 17C#0000000032870336
(2.578771) can0 174#E47F0000396B0414
(2.578875) can0 178#E77F02203C9504E9
(2.588755) can0 17C#0000000034870460
(2.588889) can0 290#0040000000000000
(2.588995) can0 174#EA7F0000396B0508
(2.598998) can0 178#EC7F03323395052F
(2.599124) can0 17C#000000003D8705FE
(2.599227) can0 290#0050000000000000
(2.609241) can0 174#EF7F0000336B0614
(2.609367) can0 178#F57F04202C9506A9
(2.609469) can0 17C#0000000048870618
(2.619484) can0 290#0040000000000000
(2.619619) can0 12B#0000000000012F77
(2.619689) can0 174#F27F0000306B07DA
(2.619791) can0 178#008005232F95077C
(2.629730) can0 17C#0000000048870705
(2.629857) can0 550#00000000000000C0
(2.629961) can0 174#EF7F00002E6B082F
(2.630062) can0 178#0380063233950834
(2.639986) can0 17C#00000000488708BE
(2.640113) can0 174#EC7F0000316B094B
(2.640215) can0 178#06800721319509EB
(2.650213) can0 17C#000000005387093B
(2.650340) can0 174#EA7F0000336B0ABC
(2.650442) can0 178#0B80082734950AB6
(2.660465) can0 17C#0000000061870A37
(2.660600) can0 290#0010000000000000
(2.660704) can0 12B#0000000000012F77
(2.660774) can0 174#EC7F0000316B0B71
(2.670699) can0 178#0B80000039950BE7
(2.670825) can0 17C#0000000061870B2A
(2.670935) can0 290#0020000000000000
(2.680942) can0 174#F27F00002B6B0C8D
(2.681068) can0 178#088001203C950CFA
(2.681171) can0 17C#0000000048870CCA
(2.691198) can0 290#0050000000000000
(2.691326) can0 300#0F00000000000000
(2.691397) can0 174#F57F0000236B0D12
(2.691499) can0 178#FA7F00003E950DDE
(2.691617) can0 17C#0000000029870D08
(2.701428) can0 450#0000000000000000
(2.701534) can0 174#F57F0000236B0E35
(2.701640) can0 178#EC7F01123F950E74
(2.701751) can0 17C#000000001C870E8E
(2.711671) can0 174#F57F0000306B0FBC
(2.711805) can0 178#EC7F020F3E950F32
(2.711908) can0 17C#0000000023870F3D
(2.721915) can0 290#0040000000000000
(2.722050) can0 174#F57F0000366B0002
(2.722153) can0 178#EF7F03023A95004D
(2.732157) can0 17C#000000002E870003
(2.732284) can0 290#0030000000000000
(2.732387) can0 174#F57F0000316B0195
(2.742413) can0 178#F27F04053995017C
(2.742548) can0 17C#0000000038870103
(2.742651) can0 174#F57F00002B6B02A5
(2.742753) can0 178#FA7F05123C9502BB
(2.752643) can0 17C#00000000458702E9
(2.752769) can0 174#F57F00002D6B03BD
(2.752880) can0 178#FD7F061439950376
(2.762887) can0 17C#00000000478703F7
(2.763014) can0 174#F57F0000356B04FA
(2.763116) can0 178#FD7F072F36950480
(2.773128) can0 17C#000000003F8704E0
(2.773255) can0 174#F87F0000396B050B
(2.773358) can0 178#F87F08022F95054B
(2.783371) can0 17C#0000000032870578
(2.783498) can0 290#0030000000000000
(2.783577) can0 12B#0000000000012F78
(2.783680) can0 174#FA7F00003C6B061F
(2.793629) can0 178#FD7F090F2C9506F1
(2.793756) can0 17C#00000000298706C7
(2.793860) can0 290#0040000000000000
(2.793963) can0 12B#0000000000013F77
(2.803858) can0 300#0F00000000000000
(2.803957) can0 174#F87F0000406B07FA
(2.804064) can0 178#03800A133395079A
(2.804166) can0 17C#00000000298707DA
(2.814100) can0 174#F57F00003C6B08E5
(2.814226) can0 178#08800B033C9508DD
(2.814329) can0 17C#000000003F87087C
(2.824343) can0 174#F57F0000396B0971
(2.824469) can0 178#0B800C084495094E
(2.824580) can0 17C#000000005B870937
(2.834588) can0 174#F57F00003C6B0ADF
(2.834713) can0 178#06800D2F42950A5E
(2.834816) can0 17C#000000005B870A10
(2.844829) can0 178#FD7F0E073E950BFC
(2.844961) can0 17C#0000000048870B99
(2.845065) can0 290#0030000000000000
(2.855086) can0 12B#0000000000012F78
(2.855212) can0 17C#0000000034870C88
(2.855315) can0 450#0000000000000000
(2.855386) can0 290#0040000000000000
(2.855490) can0 290#0020000000000000
(2.865315) can0 12B#0000000000012F78
(2.865405) can0 174#E77F0000386B0EAE
(2.865511) can0 290#0040000000000000
(2.865622) can0 12B#0000000000013F77
(2.875559) can0 128#1388030000EC7882
(2.875685) can0 12E#0000000000000080
(2.875788) can0 290#0030000000000000
(2.885801) can0 12B#0000000000013F78
(2.885928) can0 174#F57F0000356B008E
(2.886030) can0 178#FA7F01282B950072
(2.896044) can0 290#0040000000000000
(2.896171) can0 12B#0000000000012F78
(2.896274) can0 128#1388030000EC78A2
(2.906300) can0 12E#00000000000000A0
(2.906427) can0 12A#1228012000000000
(2.906538) can0 12C#0000000000000000
(2.906608) can0 290#0040000000000000
(2.906679) can0 12B#0000000000013F77
(2.906781) can0 174#FA7F0000336B02ED
(2.916538) can0 290#0050000000000000
(2.916665) can0 12B#0000000000013F78
(2.916774) can0 128#1388030000EC78C2
(2.926773) can0 290#0050000000000000
(2.926864) can0 12B#0000000000012F77
(2.926970) can0 174#F57F0000336B04FF
(2.927073) can0 290#0050000000000000
(2.927143) can0 12B#0000000000013F78
(2.937016) can0 128#1388030000EC7822
(2.937141) can0 290#0040000000000000
(2.937245) can0 12B#0000000000012F78
(2.947259) can0 12A#1228012000000000
(2.947348) can0 550#00000000000000C0
(2.947419) can0 290#0020000000000000
(2.947534) can0 12B#0000000000013F77
(2.947637) can0 128#1388030000EC7842
(2.957515) can0 290#0050000000000000
(2.957647) can0 12B#0000000000013F78
(2.957749) can0 174#FA7F0000386B08BF
(2.957852) can0 178#118009202E9508D4
(2.967745) can0 290#0050000000000000
(2.967835) can0 12B#0000000000012F77
(2.967942) can0 128#1388030000EC7862
(2.968043) can0 12E#0000000000000060
(2.977988) can0 174#FA7F0000356B0927
(2.978114) can0 12B#0000000000013F78
(2.978224) can0 174#F57F0000366B0AD0
(2.988230) can0 178#14800B293E950A17
(2.988356) can0 17C#000000003D870A45
(2.988466) can0 12E#0000000000000080
(2.998474) can0 12A#1228012000000000
(2.998571) can0 12C#0000000000000000
(2.998650) can0 5A0#0069200000000049
(2.998757) can0 550#0000000000000020
(2.998867) can0 300#0F00000000000000
(2.998938) can0 174#EF7F00003E6B0C43
(3.008719) can0 178#E77F000047950C57
(3.008844) can0 17C#000000005B870C5E
(3.008946) can0 290#0040000000000000
(3.009054) can0 12B#0000000000013F78
(3.009123) can0 174#F27F0000366B0D0D
(3.018975) can0 178#E17F00FF42950DB6
(3.019101) can0 17C#0000000050870DC3
(3.019203) can0 174#FA7F0000336B0E71
(3.029202) can0 178#F57F000037950E26
(3.029328) can0 17C#000000003C870EBE
(3.029430) can0 290#0050000000000000
(3.039445) can0 174#FA7F0000306B0FE0
(3.039579) can0 178#088001202F950F49
(3.039681) can0 17C#000000001F870F1F
(3.049688) can0 550#0000000000000040
(3.049815) can0 174#F57F0000306B0007
(3.049918) can0 178#118002222F95005D
(3.059935) can0 174#EC7F0000306B012C
(3.060061) can0 178#1480032633950142
(3.060162) can0 17C#00000000F48601E5
(3.070188) can0 290#0040000000000000
(3.070314) can0 12B#0000000000013F77
(3.070423) can0 174#E77F0000336B02B2
(3.070536) can0 178#16800425369502E7
(3.080417) can0 17C#000000000E870209
(3.080552) can0 174#EA7F0000336B0349
(3.080654) can0 178#148005203995037F
(3.090660) can0 17C#000000003C87033F
(3.090786) can0 290#0040000000000000
(3.090857) can0 12B#0000000000013F78
(3.090960) can0 174#F27F0000336B0471
(3.100905) can0 178#0B8006213A950466
(3.101031) can0 17C#000000005887043A
(3.101134) can0 290#0040000000000000
(3.101204) can0 300#0F00000000000000
(3.101275) can0 174#F57F0000386B0562
(3.111146) can0 178#068007213995057B
(3.111272) can0 17C#000000005C870521
(3.111375) can0 174#F57F0000396B06CA
(3.121402) can0 178#FD7F082039950628
(3.121545) can0 17C#000000005B87068C
(3.121648) can0 290#0040000000000000
(3.121718) can0 174#F57F0000396B07D7
(3.121828) can0 178#FD7F09253C950705
(3.131637) can0 17C#0000000056870714
(3.131764) can0 174#F87F0000396B088A
(3.131877) can0 178#FA7F0A293A950859
(3.141878) can0 17C#000000004D870837
(3.142013) can0 290#0010000000000000
(3.142116) can0 174#FA7F0000396B092D
(3.152123) can0 178#FD7F00003E950924
(3.152249) can0 17C#000000003D870962
(3.152359) can0 290#0030000000000000
(3.162361) can0 174#F57F00003C6B0ADF
(3.162493) can0 178#0680012045950A7E
(3.162603) can0 17C#000000002A870AD7
(3.172619) can0 450#0000000000000000
(3.172709) can0 290#0040000000000000
(3.172817) can0 174#F57F0000396B0B4B
(3.172919) can0 178#118000004A950BF2
(3.173022) can0 17C#000000001F870B6B
(3.182847) can0 290#0030000000000000
(3.182974) can0 174#F57F0000306B0C9B
(3.183076) can0 178#1180012048950C82
(3.193090) can0 17C#0000000026870C93
(3.193216) can0 290#0050000000000000
(3.193320) can0 12B#0000000000013F77
(3.203332) can0 128#1388030000EC7822
(3.203458) can0 12E#0000000000000020
(3.203569) can0 174#F87F00002D6B0DFD
(3.213577) can0 178#0B80022144950D67
(3.213703) can0 17C#0000000042870DD8
(3.213806) can0 174#FA7F0000336B0E71
(3.223818) can0 178#008003243E950E8B
(3.223945) can0 17C#000000005B870E64
(3.224047) can0 290#0040000000000000
(3.234075) can0 300#0F00000000000000
(3.234166) can0 174#FA7F0000396B0F63
(3.234272) can0 178#F27F042F36950FAD
(3.234374) can0 17C#0000000061870F5E
(3.234484) can0 450#0000000000000000
(3.234567) can0 174#FA7F0000366B005E
(3.244304) can0 178#EC7F0512369500E4
(3.244430) can0 17C#00000000618700E5
(3.244541) can0 290#0050000000000000
(3.254555) can0 12B#0000000000013F77
(3.254644) can0 174#FA7F00002B6B01DE
(3.254750) can0 178#F27F06243C9501F6
(3.254853) can0 17C#0000000058870153
(3.264790) can0 290#0030000000000000
(3.264918) can0 174#F57F0000206B0225
(3.265020) can0 178#FA7F07264295020F
(3.275033) can0 17C#00000000458702E9
(3.275160) can0 174#EF7F00001C6B03CB
(3.275262) can0 178#03800820479503A1
(3.285290) can0 17C#0000000032870336
(3.285416) can0 174#EF7F0000226B04B9
(3.285519) can0 178#0B8009254A95041C
(3.285629) can0 17C#000000002C870474
(3.295519) can0 178#0E80000047950534
(3.295651) can0 17C#0000000032870578
(3.295754) can0 290#0050000000000000
(3.305762) can0 12B#0000000000012F78
(3.305893) can0 174#EF7F0000336B0614
(3.305995) can0 17C#000000003C870656
(3.316005) can0 290#0060000000000000
(3.316132) can0 12B#0000000000013F78
(3.316235) can0 128#1388030000EC78C2
(3.326248) can0 290#0030000000000000
(3.326375) can0 12B#0000000000013F78
(3.326445) can0 174#E77F00002A6B08FB
(3.326556) can0 290#0030000000000000
(3.326626) can0 12B#0000000000013F77
(3.336504) can0 128#1388030000EC7822
(3.336638) can0 290#0040000000000000
(3.336741) can0 12B#0000000000013F78
(3.336844) can0 174#EC7F00001F6B0A55
(3.346734) can0 290#0050000000000000
(3.346862) can0 12B#0000000000013F78
(3.346932) can0 128#1388030000EC7842
(3.347033) can0 12E#0000000000000040
(3.356977) can0 290#0030000000000000
(3.357104) can0 12B#0000000000013F77
(3.357206) can0 174#EF7F00001D6B0CFF
(3.367220) can0 178#088001223A950CD8
(3.367346) can0 290#0050000000000000
(3.367449) can0 12B#0000000000013F78
(3.377463) can0 128#1388030000EC7862
(3.377596) can0 290#0040000000000000
(3.377700) can0 12B#0000000000013F77
(3.387708) can0 12A#1228012000000000
(3.387797) can0 290#0050000000000000
(3.387905) can0 12B#0000000000013F78
(3.388008) can0 128#1388030000EC7882
(3.388108) can0 12E#0000000000000080
(3.397965) can0 290#0040000000000000
(3.398098) can0 12B#0000000000013F78
(3.398176) can0 174#FA7F0000396B00D8
(3.398282) can0 290#0040000000000000
(3.398353) can0 12B#0000000000013F77
(3.408197) can0 128#1388030000EC78A2
(3.408322) can0 290#0050000000000000
(3.408434) can0 12B#0000000000013F78
(3.418440) can0 174#EF7F00002B6B0274
(3.418572) can0 178#FA7F07213E9502B9
(3.418683) can0 17C#000000004E870269
(3.428683) can0 290#0040000000000000
(3.428810) can0 12B#0000000000013F78
(3.428880) can0 128#1388030000EC78C2
(3.428982) can0 12E#00000000000000C0
(3.438922) can0 290#0040000000000000
(3.439013) can0 12B#0000000000013F77
(3.439119) can0 174#F57F00001F6B04C5
(3.439222) can0 128#1388030000EC7822
(3.449177) can0 12E#0000000000000020
(3.449304) can0 174#F57F0000206B0576
(3.449406) can0 174#EF7F0000256B0609
(3.449508) can0 178#1180000036950631
(3.459406) can0 17C#000000004D870691
(3.459541) can0 174#EF7F00002D6B0718
(3.459643) can0 178#16800112349507C9
(3.469649) can0 17C#00000000358707C8
(3.469776) can0 290#0040000000000000
(3.469846) can0 550#0000000000000080
(3.469950) can0 174#EF7F0000356B08B7
(3.479895) can0 178#0E80020F39950848
(3.480021) can0 174#EF7F0000356B09AA
(3.480123) can0 178#068003023F9509A7
(3.490135) can0 17C#0000000023870973
(3.490262) can0 174#F57F0000316B0A5A
(3.490364) can0 178#0B80040541950AD8
(3.500392) can0 17C#000000002F870A5E
(3.500518) can0 174#F87F0000356B0BA7
(3.500629) can0 178#198005123C950BB0
(3.500731) can0 17C#0000000035870B54
(3.510624) can0 290#0030000000000000
(3.510751) can0 174#FA7F00003B6B0C47
(3.510854) can0 178#2280061433950C51
(3.520870) can0 17C#000000002A870C99
(3.520997) can0 290#0050000000000000
(3.521100) can0 550#00000000000000A0
(3.531107) can0 300#0F00000000000000
(3.531198) can0 174#FA7F00003C6B0DD0
(3.531304) can0 178#1F80072F2E950DC2
(3.531406) can0 174#F57F00003C6B0EAB
(3.541350) can0 178#0B8008022C950E4F
(3.541476) can0 17C#000000001B870E04
(3.541595) can0 174#EA7F0000406B0F11
(3.551613) can0 178#0080090F2C950F42
(3.551740) can0 17C#0000000027870F3B
(3.551851) can0 174#E77F0000436B00C0
(3.551953) can0 178#FD7F0A1333950068
(3.561836) can0 17C#000000003F870094
(3.561969) can0 174#E47F00003C6B01F4
(3.562071) can0 178#FA7F0B033C950132
(3.572079) can0 17C#00000000538701D3
(3.572211) can0 174#EA7F0000356B0251
(3.572315) can0 178#F57F0C0844950220
(3.582322) can0 17C#000000005E870271
(3.582448) can0 450#0000000000000000
(3.582519) can0 290#0040000000000000
(3.582631) can0 174#F27F0000316B0321
(3.592566) can0 178#F57F0D2F47950365
(3.592692) can0 17C#000000005B8703E5
(3.592795) can0 290#0050000000000000
(3.602808) can0 174#F87F0000336B0419
(3.602942) can0 178#FD7F0E0744950400
(3.603045) can0 17C#00000000558704BF
(3.613064) can0 174#F87F0000396B050B
(3.613190) can0 178#FD7F0F0D3C950588
(3.613293) can0 17C#00000000458705BA
(3.613396) can0 174#F27F00003C6B06CD
(3.623294) can0 178#F87F00023195060A
(3.623420) can0 17C#000000003287065F
(3.623523) can0 300#0F00000000000000
(3.623600) can0 174#EF7F0000366B0780
(3.633544) can0 178#FD7F01082C95076F
(3.633670) can0 17C#000000002E870750
(3.633773) can0 450#0000000000000000
(3.633844) can0 290#0040000000000000
(3.643779) can0 174#EF7F00002B6B08A6
(3.643906) can0 178#008000002F9508E8
(3.644009) can0 17C#000000003A8708F5
(3.654024) can0 174#EF7F0000276B09B1
(3.654156) can0 178#0680012836950901
(3.654260) can0 17C#000000004B87092F
(3.664279) can0 290#0050000000000000
(3.664406) can0 12B#0000000000013F77
(3.664476) can0 174#EF7F00002B6B0A9C
(3.664586) can0 178#0680022041950AC6
(3.664689) can0 17C#0000000047870A02
(3.674508) can0 174#E77F0000316B0B44
(3.674639) can0 178#FA7F032145950B31
(3.674742) can0 17C#000000002E870BCC
(3.684751) can0 290#0050000000000000
(3.684842) can0 12B#0000000000013F77
(3.684912) can0 174#E47F0000316B0CF0
(3.685018) can0 178#EC7F042342950CAE
(3.685120) can0 17C#0000000021870C19
(3.694994) can0 450#0000000000000000
(3.695085) can0 174#E77F00002D6B0D18
(3.695191) can0 178#EC7F052339950D11
(3.695294) can0 17C#0000000024870D8D
(3.705237) can0 290#0050000000000000
(3.705328) can0 174#EF7F00002D6B0EED
(3.705434) can0 178#FA7F062231950E73
(3.705544) can0 17C#000000002F870E2A
(3.715494) can0 178#0E8007242F950FB5
(3.715627) can0 17C#0000000035870F20
(3.715730) can0 290#0050000000000000
(3.715801) can0 17C#000000003C870018
(3.715904) can0 290#0050000000000000
(3.715980) can0 12B#0000000000013F77
(3.716053) can0 128#1388030000EC7862
(3.725723) can0 12E#0000000000000060
(3.725850) can0 12A#1228012000000000
(3.725919) can0 450#0000000000000000
(3.725991) can0 290#0050000000000000
(3.726061) can0 12B#0000000000013F78
(3.726164) can0 174#E77F0000406B0276
(3.735966) can0 178#0E800A214295029A
(3.736092) can0 290#0050000000000000
(3.736163) can0 12B#0000000000013F77
(3.736266) can0 128#1388030000EC7882
(3.746209) can0 290#0040000000000000
(3.746336) can0 12B#0000000000013F78
(3.746439) can0 174#E47F0000396B0414
(3.756461) can0 290#0050000000000000
(3.756596) can0 12B#0000000000013F78
(3.756666) can0 128#1388030000EC78A2
(3.756768) can0 290#0040000000000000
(3.766698) can0 12B#0000000000013F77
(3.766824) can0 12A#1228012000000000
(3.766894) can0 290#0050000000000000
(3.766997) can0 12B#0000000000013F78
(3.767098) can0 128#1388030000EC78C2
(3.776959) can0 290#0040000000000000
(3.777087) can0 12B#0000000000013F78
(3.777157) can0 174#F87F0000316B0886
(3.777259) can0 178#148001203A950889
(3.787181) can0 290#0040000000000000
(3.787276) can0 12B#0000000000013F78
(3.787349) can0 128#1388030000EC7822
(3.787462) can0 290#0040000000000000
(3.787540) can0 12B#0000000000013F77
(3.787642) can0 174#EF7F0000306B0A04
(3.797424) can0 178#F57F03263C950A4F
(3.797558) can0 290#0040000000000000
(3.797629) can0 12B#0000000000013F78
(3.797732) can0 128#1388030000EC7842
(3.807667) can0 12E#0000000000000040
(3.807802) can0 12A#1228012000000000
(3.807872) can0 290#0050000000000000
(3.807975) can0 12B#0000000000013F78
(3.808045) can0 174#F57F00003C6B0C91
(3.817912) can0 290#0050000000000000
(3.818003) can0 12B#0000000000013F78
(3.818073) can0 128#1388030000EC7862
(3.818186) can0 12E#0000000000000060
(3.818289) can0 174#F27F00003B6B0D88
(3.828172) can0 12B#0000000000013F77
(3.828298) can0 174#EF7F0000366B0E75
(3.828408) can0 178#1C80072137950E6C
(3.828510) can0 128#1388030000EC7882
(3.838401) can0 12E#0000000000000080
(3.838536) can0 174#EF7F0000386B0F61
(3.838646) can0 550#00000000000000C0
(3.848644) can0 174#EF7F0000366B00D3
(3.848770) can0 178#068009254795000B
(3.848875) can0 12E#00000000000000A0
(3.858884) can0 174#F57F00002D6B0187
(3.859010) can0 178#FA7F0A2945950162
(3.859118) can0 174#F87F0000236B024F
(3.869124) can0 178#FA7F00003F9502EA
(3.869256) can0 17C#00000000678702DA
(3.869360) can0 290#0030000000000000
(3.879381) can0 12B#0000000000013F78
(3.879507) can0 174#EF7F00001D6B0344
(3.879618) can0 178#F87F01203A9503E4
(3.879720) can0 17C#00000000778703DF
(3.889612) can0 174#EC7F0000176B04FF
(3.889738) can0 178#F87F00003995041B
(3.889840) can0 17C#000000007F870480
(3.899854) can0 550#0000000000000020
(3.899981) can0 300#0F00000000000000
(3.900052) can0 174#EC7F00001A6B0567
(3.900155) can0 174#F27F0000276B0655
(3.910096) can0 178#008002213C9506D9
(3.910222) can0 17C#0000000056870609
(3.910326) can0 174#F57F0000316B07DB
(3.920339) can0 178#0E800324419507B1
(3.920465) can0 17C#0000000047870783
(3.920572) can0 174#F57F0000316B0860
(3.930597) can0 178#1680042F3F95080D
(3.930723) can0 17C#000000003A8708F5
(3.930826) can0 290#0020000000000000
(3.930930) can0 12B#0000000000013F78
(3.931000) can0 128#1388030000EC7862
(3.940825) can0 174#F57F00002E6B09E3
(3.940951) can0 178#168005123F95095A
(3.941054) can0 17C#0000000031870968
(3.951068) can0 174#F57F0000316B0A5A
(3.951199) can0 178#0B80062441950ADB
(3.951303) can0 17C#000000002C870AD2
(3.961311) can0 450#0000000000000000
(3.961402) can0 174#F87F0000396B0BAD
(3.961508) can0 178#0380072642950BD5
(3.961619) can0 17C#0000000032870BDE
(3.971563) can0 174#FD7F00003B6B0CC9
(3.971689) can0 178#0080082044950C71
(3.971792) can0 17C#000000003D870C0B
(3.981797) can0 174#FA7F0000356B0D53
(3.981924) can0 178#0380092545950DBD
(3.982034) can0 17C#000000004D870D5E
(3.992053) can0 290#0030000000000000
(3.992181) can0 174#F57F0000336B0E2D
(3.992283) can0 178#0080000041950EFF
(3.992386) can0 17C#0000000055870E6D
(4.002288) can0 300#0F00000000000000
(4.002378) can0 174#F27F0000366B0F37
(4.002489) can0 178#F27F012536950FC9
(4.002598) can0 174#EF7F0000396B0055
(4.012526) can0 178#EF7F0239319500EE
(4.012659) can0 17C#000000003D870097
(4.012761) can0 174#EF7F00003B6B014B
(4.022769) can0 178#F27F03213395017C
(4.022897) can0 17C#000000002F870191
(4.023000) can0 290#0040000000000000
(4.033012) can0 12B#0000000000013F77
(4.033138) can0 174#F57F0000386B0231
(4.033247) can0 178#F87F04203695022C
(4.043268) can0 17C#00000000358702A1
(4.043394) can0 290#0050000000000000
(4.043498) can0 174#F57F0000366B0325
(4.043608) can0 178#FA7F00003C95037B
(4.053498) can0 17C#00000000478703F7
(4.053632) can0 290#0050000000000000
(4.053702) can0 174#00800000386B04EB
(4.053804) can0 178#F87F00003E950491
(4.063741) can0 17C#00000000438704A2
(4.063871) can0 174#03800000306B051D
(4.063973) can0 178#FD7F012239950535
(4.073983) can0 17C#000000003D8705FE
(4.074110) can0 174#06800000236B069A
(4.074212) can0 178#0B8002203495067D
(4.084226) can0 17C#000000003F8706DA
(4.084353) can0 174#038000001F6B0791
(4.084455) can0 178#1C800332339507B5
(4.094483) can0 17C#0000000048870705
(4.094618) can0 290#0050000000000000
(4.094688) can0 12B#0000000000013F77
(4.094757) can0 174#FD7F0000256B08AC
(4.094861) can0 178#22800420339508D0
(4.094963) can0 17C#00000000588708A6
(4.104712) can0 290#0040000000000000
(4.104839) can0 12B#0000000000013F77
(4.104909) can0 178#27800523349509A3
(4.105011) can0 17C#000000005B870937
(4.114955) can0 450#0000000000000000
(4.115046) can0 17C#0000000048870A84
(4.115153) can0 290#0050000000000000
(4.115257) can0 12B#0000000000013F77
(4.115326) can0 290#0050000000000000
(4.115397) can0 12B#0000000000013F78
(4.125198) can0 174#EC7F00003B6B0C2D
(4.125324) can0 178#1C80082734950CCF
(4.125426) can0 290#0050000000000000
(4.125497) can0 12B#0000000000013F77
(4.135441) can0 128#1388030000EC7822
(4.135572) can0 12E#0000000000000020
(4.135675) can0 290#0040000000000000
(4.145687) can0 12B#0000000000013F77
(4.145777) can0 12A#1228012000000000
(4.145846) can0 550#00000000000000C0
(4.145954) can0 290#0050000000000000
(4.146057) can0 12B#0000000000013F77
(4.146127) can0 128#1388030000EC7842
(4.146227) can0 290#0040000000000000
(4.155943) can0 12B#0000000000013F77
(4.156033) can0 174#008000002D6B000E
(4.156140) can0 178#168001123A950093
(4.156242) can0 290#0050000000000000
(4.166170) can0 12B#0000000000013F77
(4.166259) can0 128#1388030000EC7862
(4.166365) can0 290#0050000000000000
(4.166436) can0 12B#0000000000013F78
(4.166555) can0 174#FA7F00002A6B0276
(4.176413) can0 290#0030000000000000
(4.176548) can0 12B#0000000000013F77
(4.176651) can0 128#1388030000EC7882
(4.186656) can0 12E#0000000000000080
(4.186783) can0 290#0040000000000000
(4.186891) can0 12B#0000000000013F77
(4.186961) can0 174#EF7F00002D6B043F
(4.196901) can0 290#0050000000000000
(4.197028) can0 12B#0000000000013F77
(4.197098) can0 128#1388030000EC78A2
(4.197199) can0 290#0030000000000000
(4.207156) can0 12B#0000000000013F77
(4.207245) can0 174#EA7F0000276B063E
(4.207352) can0 178#FA7F072F2F9506AF
(4.207454) can0 290#0030000000000000
(4.207525) can0 12B#0000000000013F77
(4.207599) can0 128#1388030000EC78C2
(4.207700) can0 12B#0000000000013F77
(4.207777) can0 12A#1228012000000000
(4.207846) can0 550#0000000000000040
(4.217385) can0 174#EF7F0000336B08B2
(4.217511) can0 12B#0000000000013F77
(4.217589) can0 128#1388030000EC7822
(4.217691) can0 12E#0000000000000020
(4.227628) can0 174#EA7F0000286B0A24
(4.227754) can0 178#EA7F0B0339950ACD
(4.227857) can0 17C#0000000031870A4F
(4.237873) can0 174#EA7F0000236B0BB9
(4.237999) can0 178#EF7F0C0842950B01
(4.238102) can0 17C#000000001C870BE7
(4.248114) can0 290#0050000000000000
(4.248249) can0 174#EC7F0000286B0CB9
(4.248351) can0 178#FD7F0D2F48950C8A
(4.258378) can0 17C#0000000011870C31
(4.258504) can0 5A0#0069200000000069
(4.258624) can0 550#0000000000000060
(4.258728) can0 300#0F00000000000000
(4.258799) can0 174#EF7F0000306B0E70
(4.268601) can0 178#16800F0D3C950E6B
(4.268735) can0 17C#000000001B870E04
(4.268838) can0 290#0050000000000000
(4.268909) can0 174#EF7F00002B6B0FF5
(4.278842) can0 178#1C80000234950F06
(4.278969) can0 17C#0000000027870F3B
(4.279072) can0 290#0040000000000000
(4.289086) can0 174#F57F0000256B0096
(4.289211) can0 178#1C8001083695006F
(4.289314) can0 17C#0000000032870011
(4.299328) can0 290#0050000000000000
(4.299456) can0 174#FA7F0000226B015D
(4.299566) can0 178#198000003C9501BF
(4.309586) can0 17C#000000003D87018A
(4.309713) can0 174#FD7F0000276B027D
(4.309815) can0 178#19800128459502EF
(4.309918) can0 17C#0000000042870263
(4.319814) can0 174#F27F0000336B0322
(4.319941) can0 178#22800220489503B6
(4.320043) can0 17C#000000004B8703FD
(4.330057) can0 290#0020000000000000
(4.330184) can0 12B#0000000000013F77
(4.330254) can0 174#EA7F00003E6B049F
(4.330356) can0 178#2280032145950497
(4.340300) can0 17C#000000004E870427
(4.340427) can0 174#EA7F0000416B054C
(4.340537) can0 178#1180042344950518
(4.350551) can0 17C#00000000438705BF
(4.350678) can0 290#0050000000000000
(4.350781) can0 12B#0000000000013F77
(4.350851) can0 174#F27F00003B6B0647
(4.360786) can0 178#068005233E950625
(4.360913) can0 17C#000000003287065F
(4.361016) can0 290#0040000000000000
(4.371043) can0 300#0F00000000000000
(4.371134) can0 174#F87F00002A6B07A5
(4.371240) can0 178#088006223395079F
(4.371342) can0 17C#00000000358707C8
(4.371445) can0 174#FA7F00001D6B0806
(4.381272) can0 178#0B8007242E95085D
(4.381398) can0 17C#000000004A8708BD
(4.381509) can0 290#0050000000000000
(4.391515) can0 12B#0000000000013F77
(4.391617) can0 128#1388030000EC7862
(4.391722) can0 12E#0000000000000060
(4.391832) can0 174#FA7F0000206B09B6
(4.401765) can0 178#0B80082333950955
(4.401895) can0 17C#00000000568709B2
(4.402006) can0 290#0040000000000000
(4.412001) can0 12B#0000000000013F77
(4.412097) can0 174#FA7F0000256B0A18
(4.412203) can0 178#068009203A950AC7
(4.412306) can0 17C#0000000050870A90
(4.422263) can0 290#0030000000000000
(4.422390) can0 12B#0000000000013F77
(4.422460) can0 174#FA7F00002A6B0B83
(4.422571) can0 178#03800A213E950BCB
(4.422673) can0 17C#000000003F870B5B
(4.432487) can0 174#FA7F00002D6B0C5A
(4.432621) can0 178#00800B293C950C8A
(4.432723) can0 17C#0000000038870C82
(4.442730) can0 450#0000000000000000
(4.442821) can0 174#FA7F00002E6B0DCB
(4.442927) can0 178#088000003F950D4B
(4.443030) can0 17C#0000000035870D1A
(4.452973) can0 290#0030000000000000
(4.453063) can0 12B#0000000000013F77
(4.453133) can0 174#F87F0000366B0E42
(4.453239) can0 178#1680000044950E1C
(4.453342) can0 17C#000000002C870EA6
(4.463216) can0 290#0030000000000000
(4.463306) can0 174#EF7F00003C6B0F67
(4.463413) can0 178#198000FF42950FFE
(4.463515) can0 17C#0000000026870FB4
(4.473472) can0 290#0050000000000000
(4.473608) can0 12B#0000000000013F77
(4.473678) can0 174#EC7F00003E6B0038
(4.473780) can0 178#08800000399500CF
(4.473889) can0 17C#0000000023870086
(4.483702) can0 290#0050000000000000
(4.483792) can0 12B#0000000000013F77
(4.483863) can0 300#0F00000000000000
(4.483934) can0 174#EA7F00003E6B01F6
(4.484040) can0 178#EA7F01203395015E
(4.484142) can0 17C#000000002E87011E
(4.493945) can0 450#0000000000000000
(4.494036) can0 174#EF7F0000396B026F
(4.494142) can0 178#DC7F02222C95027B
(4.494244) can0 17C#000000004A87026F
(4.504188) can0 290#0050000000000000
(4.504278) can0 12B#0000000000013F77
(4.504348) can0 178#E47F03262E950345
(4.504454) can0 17C#00000000558703EC
(4.504565) can0 290#0020000000000000
(4.514430) can0 12B#0000000000013F77
(4.514520) can0 17C#00000000458704A7
(4.514635) can0 290#0030000000000000
(4.514739) can0 12B#0000000000013F77
(4.514808) can0 290#0040000000000000
(4.524676) can0 12B#0000000000013F77
(4.524766) can0 12A#1228012000000000
(4.524835) can0 450#0000000000000000
(4.524912) can0 290#0040000000000000
(4.524986) can0 12B#0000000000013F77
(4.525057) can0 290#0050000000000000
(4.525165) can0 12B#0000000000013F77
(4.525235) can0 174#FD7F0000366B0838
(4.525337) can0 290#0010000000000000
(4.525439) can0 12B#0000000000013F77
(4.525512) can0 128#1388030000EC78A2
(4.534936) can0 12E#00000000000000A0
(4.535064) can0 290#0050000000000000
(4.535169) can0 12B#0000000000013F77
(4.535239) can0 174#FA7F0000316B0A06
(4.545159) can0 290#0050000000000000
(4.545250) can0 12B#0000000000013F77
(4.545320) can0 128#1388030000EC78C2
(4.545425) can0 12E#00000000000000C0
(4.545537) can0 290#0040000000000000
(4.555402) can0 12B#0000000000013F77
(4.555492) can0 174#EC7F00002D6B0C30
(4.555606) can0 290#0040000000000000
(4.555677) can0 12B#0000000000013F77
(4.555747) can0 128#1388030000EC7822
(4.555849) can0 290#0050000000000000
(4.565645) can0 12B#0000000000013F77
(4.565735) can0 174#E47F0000286B0E51
(4.565841) can0 178#0E80012045950ED8
(4.565944) can0 17C#0000000037870E3E
(4.575890) can0 290#0040000000000000
(4.576017) can0 12B#0000000000013F77
(4.576087) can0 128#1388030000EC7842
(4.576189) can0 290#0040000000000000
(4.576260) can0 12B#0000000000013F77
(4.576329) can0 12A#1228012000000000
(4.576399) can0 290#0040000000000000
(4.576470) can0 12B#0000000000013F77
(4.576548) can0 128#1388030000EC7862
(4.586145) can0 12E#0000000000000060
(4.586272) can0 290#0050000000000000
(4.586375) can0 12B#0000000000013F77
(4.586445) can0 174#F87F00002E6B02CA
(4.586564) can0 128#1388030000EC7882
(4.596374) can0 12E#0000000000000080
(4.596501) can0 174#F87F0000306B03C6
(4.596612) can0 174#F57F0000386B047F
(4.606618) can0 178#148007264D9504DF
(4.606744) can0 17C#000000003C87046C
(4.606847) can0 290#0050000000000000
(4.606918) can0 12A#1228012000000000
(4.606987) can0 12C#0000000000000000
(4.607058) can0 5A0#0069200000000029
(4.616862) can0 550#00000000000000A0
(4.616989) can0 174#F57F00003B6B06C9
(4.617092) can0 178#1680092542950675
(4.627103) can0 17C#00000000318706D3
(4.627230) can0 174#F27F0000366B07DF
(4.627332) can0 178#088000003C950715
(4.637360) can0 17C#0000000040870709
(4.637486) can0 174#EF7F0000316B08B1
(4.637597) can0 178#F87F0125369508F2
(4.637699) can0 17C#000000004B870832
(4.647590) can0 174#F27F00002A6B096B
(4.647716) can0 178#F57F0239339509C9
(4.647818) can0 17C#000000004B87092F
(4.657832) can0 290#0050000000000000
(4.657922) can0 550#00000000000000C0
(4.658030) can0 174#F57F0000286B0AC1
(4.658140) can0 178#0080032139950AA6
(4.668075) can0 17C#000000004E870A81
(4.668215) can0 174#F57F0000276B0B5A
(4.668319) can0 178#0E80042041950B68
(4.678318) can0 17C#000000004B870B15
(4.678452) can0 174#F57F00002D6B0C06
(4.678563) can0 178#1480000045950C13
(4.688576) can0 17C#0000000043870C4A
(4.688709) can0 174#F57F0000306B0D86
(4.688811) can0 178#1180000041950D3C
(4.688914) can0 17C#0000000037870D19
(4.698804) can0 174#F57F00002B6B0E39
(4.698930) can0 178#0B80012234950E0C
(4.699033) can0 17C#000000002F870E2A
(4.709052) can0 290#0040000000000000
(4.709179) can0 12B#0000000000013F77
(4.709249) can0 128#1388030000EC7882
(4.709318) can0 300#0F00000000000000
(4.709389) can0 174#F57F0000236B0F28
(4.709492) can0 178#038002202C950F4E
(4.719289) can0 17C#000000003D870F2C
(4.719416) can0 174#FD7F0000206B00CD
(4.719519) can0 178#008003322F9500F6
(4.729540) can0 17C#0000000050870042
(4.729667) can0 290#0050000000000000
(4.729771) can0 12B#0000000000013F77
(4.729841) can0 128#1388030000EC78A2
(4.739775) can0 174#FD7F0000276B015A
(4.739903) can0 178#00800420379501F6
(4.740006) can0 17C#00000000558701D6
(4.750032) can0 290#0050000000000000
(4.750123) can0 174#FA7F00002E6B0270
(4.750229) can0 178#06800523399502DB
(4.750331) can0 17C#000000004A87026F
(4.750435) can0 174#F57F0000336B03AC
(4.760261) can0 178#08800632319503CD
(4.760388) can0 17C#0000000032870336
(4.760491) can0 290#0030000000000000
(4.770504) can0 12B#0000000000013F77
(4.770602) can0 12A#1228012000000000
(4.770672) can0 550#0000000000000040
(4.770780) can0 174#F57F0000366B0476
(4.770884) can0 178#068007212E9504F4
(4.780747) can0 17C#00000000298704FD
(4.780876) can0 450#0000000000000000
(4.780948) can0 174#F57F0000336B05E2
(4.781050) can0 178#0080082734950538
(4.790990) can0 17C#0000000038870577
(4.791117) can0 290#0040000000000000
(4.791221) can0 12B#0000000000013F77
(4.791291) can0 174#F27F0000316B0648
(4.801247) can0 178#068000003F950685
(4.801373) can0 17C#000000004D870691
(4.801476) can0 174#EF7F0000396B0706
(4.801595) can0 178#0B80012045950719
(4.811476) can0 17C#0000000056870714
(4.811611) can0 290#0040000000000000
(4.811682) can0 174#F57F00003E6B08E6
(4.811800) can0 178#0E800000399508F4
(4.821719) can0 17C#000000004D870837
(4.821854) can0 290#0050000000000000
(4.821958) can0 300#0F00000000000000
(4.822037) can0 174#FA7F00003C6B09A4
(4.831962) can0 178#0080011223950997
(4.832088) can0 17C#00000000408709AF
(4.832191) can0 450#0000000000000000
(4.832263) can0 290#0060000000000000
(4.842205) can0 12B#0000000000013F77
(4.842301) can0 174#FD7F0000356B0A8E
(4.842407) can0 178#F27F020F16950ADF
(4.842510) can0 17C#0000000038870ACC
(4.852462) can0 290#0030000000000000
(4.852597) can0 12B#0000000000013F77
(4.852667) can0 128#1388030000EC7882
(4.852769) can0 174#008000002A6B0B4B
(4.852874) can0 178#EF7F030213950B31
(4.862691) can0 17C#0000000034870BDB
(4.862818) can0 174#FD7F0000236B0CDD
(4.862920) can0 178#F57F04051B950C40
(4.872935) can0 17C#0000000038870C82
(4.873062) can0 174#F87F0000236B0DF4
(4.873164) can0 178#0380051226950D38
(4.883177) can0 17C#000000004D870D5E
(4.883303) can0 17C#000000005C870EEE
(4.883406) can0 450#0000000000000000
(4.883478) can0 290#0050000000000000
(4.893420) can0 12B#0000000000013F77
(4.893514) can0 128#1388030000EC78C2
(4.893639) can0 17C#000000005E870FF0
(4.893742) can0 290#0030000000000000
(4.903665) can0 12B#0000000000013F77
(4.903755) can0 174#EA7F0000276B0070
(4.903867) can0 290#0040000000000000
(4.903979) can0 12B#0000000000013F77
(4.904049) can0 128#1388030000EC7822
(4.904149) can0 290#0050000000000000
(4.913923) can0 12B#0000000000013F77
(4.914013) can0 174#EF7F00001A6B02D3
(4.914119) can0 290#0030000000000000
(4.914223) can0 12B#0000000000013F77
(4.914293) can0 128#1388030000EC7842
(4.924149) can0 290#0020000000000000
(4.924276) can0 12B#0000000000013F77
(4.924346) can0 174#00800000276B0475
(4.924448) can0 178#16800C08349504D8
(4.934392) can0 290#0040000000000000
(4.934519) can0 12B#0000000000014F77
(4.934629) can0 128#1388030000EC7862
(4.944634) can0 290#0030000000000000
(4.944762) can0 12B#0000000000013F77
(4.944870) can0 174#03800000336B06B6
(4.954880) can0 178#0B800E0731950688
(4.955006) can0 290#0050000000000000
(4.955110) can0 12B#0000000000013F77
(4.955180) can0 128#1388030000EC7882
(4.965134) can0 290#0050000000000000
(4.965229) can0 12B#0000000000013F77
(4.965303) can0 12A#1228012000000000
(4.965373) can0 550#00000000000000C0
(4.965481) can0 290#0050000000000000
(4.965560) can0 12B#0000000000013F77
(4.965630) can0 128#1388030000EC78A2
(4.965731) can0 290#0040000000000000
(4.965835) can0 12B#0000000000013F77
(4.965905) can0 174#F57F0000306B0AD5
(4.975364) can0 178#1680000037950AAC
(4.975490) can0 17C#0000000037870A4A
(4.975601) can0 290#0050000000000000
(4.985608) can0 12B#0000000000013F77
(4.985697) can0 128#1388030000EC78C2
(4.985803) can0 290#0050000000000000
(4.985874) can0 12B#0000000000013F77
(4.985944) can0 174#F57F00002A6B0C8C
(4.986046) can0 178#FD7F022034950CDC
(4.995849) can0 128#1388030000EC7822
(4.995975) can0 12E#0000000000000020
(4.996078) can0 12A#1228012000000000
(4.996147) can0 12B#0000000000013F77
(4.996217) can0 174#F57F00002A6B0EB6
(5.006092) can0 178#F27F042344950E29
(5.006217) can0 17C#000000001F870E02
(5.006319) can0 174#EF7F00002A6B0F7A
(5.016349) can0 178#F87F05234C950F3A
(5.016474) can0 17C#0000000038870FA5
(5.016585) can0 290#0050000000000000
(5.016660) can0 12B#0000000000013F77
(5.016733) can0 174#F57F00002A6B0010
(5.016835) can0 178#0080062247950050
(5.026579) can0 17C#0000000050870042
(5.026706) can0 174#FA7F00002D6B01DB
(5.026808) can0 178#068007243C950155
(5.036821) can0 17C#00000000518701D0
(5.036948) can0 290#0040000000000000
(5.037051) can0 550#0000000000000040
(5.047064) can0 174#FA7F0000316B02EE
(5.047189) can0 178#FA7F0823369502EE
(5.047291) can0 17C#0000000042870263
(5.057307) can0 450#0000000000000000
(5.057397) can0 174#F57F0000336B03AC
(5.057503) can0 178#E77F0920339503F5
(5.057613) can0 17C#0000000038870339
(5.067565) can0 290#0060000000000000
(5.067692) can0 174#F57F0000306B0473
(5.067794) can0 178#E17F0A2137950450
(5.067896) can0 17C#000000003C87046C
(5.077793) can0 290#0030000000000000
(5.077920) can0 12B#0000000000013F77
(5.077990) can0 174#F57F00002A6B0579
(5.078091) can0 178#EA7F0B293F950582
(5.088036) can0 17C#000000003C870571
(5.088169) can0 290#0030000000000000
(5.088239) can0 12B#0000000000013F77
(5.088308) can0 174#FA7F0000276B0687
(5.088418) can0 178#FA7F0000479506DA
(5.098279) can0 17C#00000000358706D5
(5.098412) can0 290#0040000000000000
(5.098515) can0 12B#0000000000014F77
(5.108522) can0 300#0F00000000000000
(5.108626) can0 174#F57F0000276B07C6
(5.108732) can0 178#0080000048950789
(5.108835) can0 17C#00000000358707C8
(5.118765) can0 450#0000000000000000
(5.118856) can0 174#EF7F0000306B083E
(5.118962) can0 178#068000FF419508C4
(5.119064) can0 17C#00000000428708B1
(5.129021) can0 290#0050000000000000
(5.129148) can0 12B#0000000000013F77
(5.129251) can0 174#EF7F0000366B0926
(5.129353) can0 178#068000003995093B
(5.139251) can0 17C#0000000047870925
(5.139377) can0 290#0040000000000000
(5.139481) can0 12B#0000000000013F77
(5.139559) can0 174#EF7F0000386B0A08
(5.149494) can0 178#0380012036950A8E
(5.149627) can0 17C#0000000037870A4A
(5.149730) can0 290#0040000000000000
(5.149800) can0 12B#0000000000013F77
(5.149871) can0 128#1388030000EC7842
(5.159737) can0 12E#0000000000000040
(5.159865) can0 174#EF7F0000316B0B96
(5.159967) can0 178#0080022236950BED
(5.169979) can0 17C#000000002A870BCA
(5.170111) can0 290#0050000000000000
(5.170216) can0 12B#0000000000013F77
(5.170286) can0 12A#1228012000000000
(5.170356) can0 550#0000000000000080
(5.180236) can0 174#EF7F0000286B0C5E
(5.180362) can0 178#008003263E950C96
(5.180464) can0 17C#0000000029870C15
(5.180572) can0 450#0000000000000000
(5.180644) can0 290#0060000000000000
(5.190465) can0 12B#0000000000013F77
(5.190563) can0 128#1388030000EC7862
(5.190669) can0 174#F27F0000286B0D1C
(5.190771) can0 178#F87F042545950D80
(5.200708) can0 17C#0000000035870D1A
(5.200835) can0 290#0030000000000000
(5.200939) can0 174#F87F0000336B0ECB
(5.210951) can0 178#FD7F052048950EAF
(5.211077) can0 17C#0000000042870EFF
(5.211180) can0 290#0040000000000000
(5.221194) can0 12B#0000000000014F77
(5.221321) can0 128#1388030000EC7882
(5.221422) can0 12E#0000000000000080
(5.231451) can0 174#FA7F0000396B0F63
(5.231591) can0 178#0680062145950F81
(5.231694) can0 17C#000000003D870F2C
(5.231797) can0 290#0030000000000000
(5.241680) can0 12B#0000000000013F77
(5.241814) can0 174#FA7F0000366B005E
(5.241924) can0 178#1180072139950025
(5.251925) can0 17C#0000000029870089
(5.252060) can0 290#0050000000000000
(5.252164) can0 12B#0000000000013F77
(5.252233) can0 300#0F00000000000000
(5.252304) can0 174#FA7F00002E6B0157
(5.262173) can0 178#11800820299501C1
(5.262299) can0 17C#000000001F8701B9
(5.262402) can0 450#0000000000000000
(5.262481) can0 290#0040000000000000
(5.272409) can0 174#FA7F00002A6B0276
(5.272543) can0 178#038009251E9502FE
(5.272645) can0 17C#00000000218702BF
(5.282655) can0 174#FD7F00002A6B03E5
(5.282781) can0 178#F87F0A292095033B
(5.282889) can0 17C#0000000026870328
(5.282990) can0 174#F57F0000236B04E7
(5.292913) can0 178#F57F0000299504E5
(5.293039) can0 17C#000000002F8704F8
(5.293142) can0 290#0050000000000000
(5.303138) can0 174#F27F00001D6B0555
(5.303264) can0 178#FA7F01203695051A
(5.303366) can0 17C#000000003D8705FE
(5.313381) can0 174#F57F0000176B06F3
(5.313507) can0 178#088000003E95060B
(5.313618) can0 17C#0000000053870680
(5.323624) can0 450#0000000000000000
(5.323715) can0 174#FA7F0000156B07B1
(5.323828) can0 178#1180012044950747
(5.323932) can0 17C#000000005E870718
(5.333870) can0 178#14800221449508EB
(5.333996) can0 17C#000000005B87082A
(5.334099) can0 290#0040000000000000
(5.344123) can0 17C#000000005387093B
(5.344250) can0 290#0050000000000000
(5.344353) can0 12B#0000000000013F77
(5.344423) can0 174#FA7F0000276B0A1B
(5.344525) can0 290#0050000000000000
(5.344604) can0 12B#0000000000013F77
(5.344674) can0 128#1388030000EC7882
(5.344743) can0 290#0050000000000000
(5.344813) can0 12B#0000000000013F77
(5.344884) can0 174#FA7F0000336B0C4B
(5.354353) can0 178#118006244A950CC4
(5.354478) can0 17C#0000000032870C8D
(5.354589) can0 290#0040000000000000
(5.364597) can0 12B#0000000000013F77
(5.364687) can0 128#1388030000EC78A2
(5.364793) can0 12E#00000000000000A0
(5.364897) can0 290#0050000000000000
(5.374838) can0 12B#0000000000013F77
(5.374928) can0 174#FA7F0000366B0EF8
(5.375034) can0 178#0E8008204F950ECA
(5.375137) can0 290#0060000000000000
(5.385081) can0 12B#0000000000014F77
(5.385208) can0 128#1388030000EC78C2
(5.385316) can0 290#0040000000000000
(5.395338) can0 12B#0000000000013F77
(5.395464) can0 12A#1228012000000000
(5.395539) can0 550#0000000000000040
(5.395643) can0 174#008000002B6B000B
(5.395745) can0 290#0040000000000000
(5.395816) can0 12B#0000000000013F77
(5.395887) can0 128#1388030000EC7822
(5.405569) can0 290#0040000000000000
(5.405659) can0 12B#0000000000013F77
(5.405729) can0 174#FA7F0000306B0261
(5.405835) can0 178#F57F0239429502C1
(5.405938) can0 17C#000000004B8702E0
(5.415810) can0 290#0040000000000000
(5.415901) can0 12B#0000000000013F77
(5.415971) can0 128#1388030000EC7842
(5.416077) can0 12E#0000000000000040
(5.416180) can0 290#0030000000000000
(5.426053) can0 12B#0000000000013F77
(5.426143) can0 174#F57F0000356B04FA
(5.426249) can0 178#0680042048950482
(5.426352) can0 290#0050000000000000
(5.436296) can0 12B#0000000000013F78
(5.436423) can0 128#1388030000EC7862
(5.436524) can0 12E#0000000000000060
(5.446554) can0 290#0060000000000000
(5.446681) can0 12B#0000000000013F77
(5.446784) can0 174#F57F0000406B0601
(5.446891) can0 178#03800000419506F0
(5.456782) can0 12B#0000000000014F77
(5.456909) can0 128#1388030000EC7882
(5.457011) can0 12E#0000000000000080
(5.467025) can0 174#F57F00003E6B075D
(5.467151) can0 174#F57F0000366B08EA
(5.467253) can0 178#008002202C9508FA
(5.477268) can0 17C#000000003C8708F0
(5.477395) can0 290#0050000000000000
(5.477498) can0 12E#00000000000000A0
(5.487511) can0 174#F27F0000336B09F0
(5.487645) can0 178#0E80033229950907
(5.487748) can0 17C#000000004E8709A6
(5.497754) can0 550#0000000000000080
(5.497884) can0 174#EF7F0000366B0A01
(5.497986) can0 178#0E8004202F950A2C
(5.508011) can0 17C#0000000056870A95
(5.508145) can0 450#0000000000000000
(5.508217) can0 174#F57F0000396B0B4B
(5.508319) can0 178#0880052336950BA9
(5.508430) can0 17C#000000004E870B9C
(5.518240) can0 174#FA7F0000366B0CC2
(5.518374) can0 178#0B80063236950C1B
(5.518477) can0 17C#0000000040870CC6
(5.528483) can0 174#F57F0000306B0D86
(5.528625) can0 178#1680072134950DAF
(5.528727) can0 17C#0000000035870D1A
(5.538726) can0 290#0040000000000000
(5.538853) can0 174#F57F0000276B0E33
(5.538963) can0 178#2280082739950EA7
(5.548969) can0 17C#0000000026870EA9
(5.549095) can0 290#0050000000000000
(5.549199) can0 550#00000000000000A0
(5.559225) can0 300#0F00000000000000
(5.559316) can0 174#EF7F0000226B0F76
(5.559422) can0 178#278000003F950F42
(5.559525) can0 17C#0000000015870F10
(5.559632) can0 450#0000000000000000
(5.559703) can0 174#EA7F0000276B0070
(5.569455) can0 178#228001203F9500ED
(5.569585) can0 17C#000000000D8700BF
(5.569688) can0 290#0050000000000000
(5.569758) can0 12B#0000000000013F77
(5.579698) can0 174#E77F00002A6B010E
(5.579824) can0 178#1C8000003E950188
(5.579927) can0 17C#000000001E870136
(5.589941) can0 290#0040000000000000
(5.590068) can0 174#EF7F00002D6B0271
(5.590171) can0 178#0B8001123E9502F0
(5.600184) can0 17C#000000003F8702AE
(5.600310) can0 174#F27F0000336B0322
(5.600413) can0 178#0080020F3E95030C
(5.610440) can0 17C#00000000538703E9
(5.610572) can0 174#F57F0000386B047F
(5.610675) can0 178#FA7F03023A9504B4
(5.610777) can0 17C#00000000558704BF
(5.620669) can0 450#0000000000000000
(5.620760) can0 174#F87F0000386B0584
(5.620875) can0 178#FD7F0405369505D2
(5.620980) can0 17C#000000004A87053C
(5.630914) can0 290#0050000000000000
(5.631041) can0 12B#0000000000013F77
(5.631111) can0 174#FA7F0000336B0699
(5.631213) can0 178#06800512369506DB
(5.641155) can0 17C#0000000042870617
(5.641282) can0 290#0040000000000000
(5.641386) can0 12B#0000000000013F78
(5.651398) can0 128#1388030000EC78C2
(5.651524) can0 12E#00000000000000C0
(5.651638) can0 174#FA7F0000316B0787
(5.661644) can0 178#0B8006143C9507F8
(5.661778) can0 17C#0000000045870780
(5.661884) can0 290#0050000000000000
(5.661994) can0 12B#0000000000014F77
(5.671908) can0 174#FA7F0000336B083F
(5.672034) can0 178#1180072F3F95083D
(5.672136) can0 17C#000000004B870832
(5.682127) can0 290#0050000000000000
(5.682226) can0 12B#0000000000013F78
(5.682332) can0 128#1388030000EC7822
(5.682434) can0 12E#0000000000000020
(5.692378) can0 300#0F00000000000000
(5.692469) can0 174#FA7F00002E6B09BF
(5.692584) can0 178#0B8008023F950988
(5.692686) can0 174#F57F0000286B0AC1
(5.702614) can0 178#0B80090F37950A86
(5.702753) can0 17C#0000000032870AC3
(5.702858) can0 290#0050000000000000
(5.702929) can0 12B#0000000000013F78
(5.703007) can0 128#1388030000EC7842
(5.712857) can0 174#F27F0000276B0BD4
(5.712983) can0 178#11800A1331950B06
(5.713086) can0 17C#000000002C870BCF
(5.723113) can0 174#EF7F0000276B0CD8
(5.723239) can0 178#19800B0331950CC8
(5.723341) can0 17C#000000002E870C9F
(5.723444) can0 174#EF7F0000256B0DC6
(5.733342) can0 178#1C800C0833950DCF
(5.733468) can0 17C#000000002F870D0D
(5.733579) can0 174#EF7F0000276B0EE2
(5.743586) can0 178#16800D2F39950E5B
(5.743712) can0 17C#0000000034870EB2
(5.743815) can0 450#0000000000000000
(5.743887) can0 174#EF7F0000306B0F6D
(5.753828) can0 178#11800E073F950FA5
(5.753954) can0 17C#0000000037870F23
(5.754064) can0 290#0040000000000000
(5.764071) can0 174#F27F0000366B008C
(5.764197) can0 178#11800F0D42950002
(5.764299) can0 17C#000000003C870018
(5.774327) can0 290#0040000000000000
(5.774418) can0 174#F57F0000396B0199
(5.774524) can0 178#0B800002449501DF
(5.774632) can0 17C#0000000042870144
(5.774742) can0 290#0050000000000000
(5.784558) can0 12B#0000000000013F78
(5.784648) can0 178#11800108429502FD
(5.784754) can0 17C#00000000438702EC
(5.784858) can0 290#0060000000000000
(5.794800) can0 17C#00000000438703F1
(5.794927) can0 450#0000000000000000
(5.794998) can0 290#0040000000000000
(5.795101) can0 12B#0000000000014F78
(5.805043) can0 290#0050000000000000
(5.805170) can0 12B#0000000000013F78
(5.805272) can0 128#1388030000EC7822
(5.815285) can0 12E#0000000000000020
(5.815376) can0 290#0040000000000000
(5.815483) can0 12B#0000000000013F77
(5.815594) can0 174#F57F0000366B064C
(5.825550) can0 178#168003212C9506C1
(5.825676) can0 290#0050000000000000
(5.825779) can0 12B#0000000000014F78
(5.825884) can0 128#1388030000EC7842
(5.835771) can0 12E#0000000000000040
(5.835899) can0 290#0050000000000000
(5.835970) can0 12B#0000000000013F78
(5.836073) can0 12A#1228012000000000
(5.836142) can0 550#0000000000000080
(5.846014) can0 174#F57F0000276B087D
(5.846140) can0 290#0050000000000000
(5.846211) can0 12B#0000000000013F78
(5.846286) can0 128#1388030000EC7862
(5.846393) can0 290#0040000000000000
(5.856257) can0 12B#0000000000014F78
(5.856384) can0 174#EF7F0000226B0A1F
(5.856486) can0 178#0E80072447950A80
(5.866500) can0 17C#000000002F870A5E
(5.866635) can0 290#0050000000000000
(5.866738) can0 12B#0000000000013F78
(5.876743) can0 128#1388030000EC7882
(5.876874) can0 12E#0000000000000080
(5.876977) can0 174#EF7F0000236B0B8D
(5.887000) can0 290#0040000000000000
(5.887127) can0 12B#0000000000013F77
(5.887230) can0 174#EF7F0000206B0C52
(5.887332) can0 178#F57F092048950C85
(5.897229) can0 290#0040000000000000
(5.897320) can0 12B#0000000000014F78
(5.897426) can0 128#1388030000EC78A2
(5.897536) can0 290#0050000000000000
(5.907472) can0 12B#0000000000013F78
(5.907606) can0 174#EF7F0000236B0EE4
(5.907709) can0 290#0050000000000000
(5.907788) can0 12B#0000000000014F78
(5.917715) can0 128#1388030000EC78C2
(5.917840) can0 290#0020000000000000
(5.917944) can0 12B#0000000000013F78
(5.927958) can0 174#F57F00002D6B009A
(5.928084) can0 178#148000003695004B
(5.928194) can0 12B#0000000000013F78
(5.928264) can0 128#1388030000EC7822
(5.938220) can0 12E#0000000000000020
(5.938347) can0 12A#1228012000000000
(5.938424) can0 550#00000000000000C0
(5.938536) can0 174#F57F00002A6B022A
(5.938645) can0 178#1C800000349502A0
(5.948449) can0 17C#00000000218702BF
(5.948580) can0 12E#0000000000000040
(5.948692) can0 174#F57F0000306B0320
(5.958692) can0 178#0B800120369503A9
(5.958818) can0 17C#000000002487032B
(5.958922) can0 174#F57F0000366B0476
(5.968935) can0 178#008002223C950459
(5.969061) can0 17C#000000002F8704F8
(5.969164) can0 174#F57F0000336B05E2
(5.979173) can0 178#03800326429505C6
(5.979299) can0 17C#00000000478705B9
(5.979402) can0 290#0050000000000000
(5.989429) can0 174#F87F00002D6B0632
(5.989564) can0 178#0880042544950660
(5.989666) can0 17C#0000000058870600
(5.989770) can0 550#0000000000000020
(5.999659) can0 300#0F00000000000000
(5.999750) can0 174#F57F00002E6B0745
(5.999857) can0 174#F27F0000306B0861
(5.999959) can0 178#038006213C95082D
(6.009903) can0 17C#0000000053870826
(6.010029) can0 174#EF7F00002B6B09BB
(6.010131) can0 178#11800721399509D0
(6.020145) can0 17C#0000000047870925
(6.020271) can0 290#0030000000000000
(6.020374) can0 174#EF7F0000276B0A96
(6.030388) can0 178#1C80082036950A76
(6.030513) can0 17C#000000003C870ACA
(6.030623) can0 174#F57F0000256B0B59
(6.040633) can0 178#1480092536950B00
(6.040759) can0 17C#0000000034870BDB
(6.040867) can0 290#0040000000000000
(6.040969) can0 12B#0000000000013F78
(6.041038) can0 12A#1228012000000000
(6.041107) can0 550#0000000000000040
(6.050891) can0 174#FA7F0000206B0CDF
(6.051017) can0 178#00800A2937950C60
(6.051119) can0 17C#0000000029870C15
(6.061116) can0 450#0000000000000000
(6.061207) can0 290#0020000000000000
(6.061314) can0 12B#0000000000014F78
(6.061416) can0 174#FA7F00001A6B0DE5
(6.071359) can0 178#F57F000039950D08
(6.071485) can0 17C#0000000026870D8E
(6.071604) can0 290#0060000000000000
(6.081604) can0 174#FA7F00001D6B0E48
(6.081729) can0 178#EC7F012042950EF1
(6.081839) can0 17C#0000000035870E3D
(6.091851) can0 290#0050000000000000
(6.091978) can0 174#FD7F00002A6B0F79
(6.092080) can0 178#EC7F000045950F46
(6.102102) can0 17C#000000004B870F61
(6.102236) can0 174#FD7F0000366B00D0
(6.102338) can0 178#F87F012044950082
(6.102449) can0 17C#000000005B8700C2
(6.112331) can0 290#0020000000000000
(6.112458) can0 12B#0000000000013F78
(6.112569) can0 128#1388030000EC7862
(6.122576) can0 12E#0000000000000060
(6.122702) can0 300#0F00000000000000
(6.122773) can0 174#F87F0000366B01F9
(6.122878) can0 178#088002214495011C
(6.132817) can0 17C#00000000618701F8
(6.132944) can0 450#0000000000000000
(6.133015) can0 174#F87F0000306B02DB
(6.133118) can0 178#11800324449502B4
(6.143060) can0 17C#000000005C870272
(6.143187) can0 290#0050000000000000
(6.143290) can0 12B#0000000000013F78
(6.143360) can0 174#00800000276B0326
(6.153317) can0 178#0B80042F419503DC
(6.153443) can0 17C#0000000050870365
(6.153554) can0 290#0040000000000000
(6.153658) can0 174#03800000206B0418
(6.163553) can0 178#0680051239950467
(6.163679) can0 17C#000000003F8704E0
(6.163782) can0 174#038000001F6B05AB
(6.173789) can0 178#0B8006242F950539
(6.173916) can0 17C#0000000032870578
(6.174026) can0 290#0050000000000000
(6.184032) can0 174#FA7F0000236B0681
(6.184158) can0 178#118007262C95060E
(6.184260) can0 17C#000000003287065F
(6.194275) can0 174#F87F00002B6B072A
(6.194401) can0 178#168008202F950704
(6.194503) can0 17C#000000002E870750
(6.204539) can0 174#F57F00002D6B0872
(6.204665) can0 178#118009253395089A
(6.204767) can0 17C#000000002387086E
(6.204873) can0 174#EF7F00002D6B09BE
(6.214761) can0 178#0680000033950934
(6.214893) can0 17C#000000001E8709DE
(6.214996) can0 174#EA7F00002B6B0AA8
(6.225004) can0 178#0080012539950A3C
(6.225130) can0 17C#0000000024870ADE
(6.225233) can0 174#E47F0000286B0B38
(6.235247) can0 178#038002393F950B8A
(6.235373) can0 17C#0000000035870B54
(6.235476) can0 450#0000000000000000
(6.235555) can0 290#0040000000000000
(6.245490) can0 178#0B80032145950C9F
(6.245624) can0 17C#000000004D870C43
(6.245727) can0 290#0040000000000000
(6.245798) can0 17C#0000000059870D40
(6.255733) can0 290#0050000000000000
(6.255861) can0 12B#0000000000013F78
(6.255931) can0 290#0030000000000000
(6.256034) can0 12B#0000000000014F78
(6.265989) can0 128#1388030000EC7882
(6.266115) can0 290#0040000000000000
(6.266218) can0 12B#0000000000013F78
(6.266321) can0 12A#1228012000000000
(6.266390) can0 290#0050000000000000
(6.276218) can0 12B#0000000000013F78
(6.276308) can0 128#1388030000EC78A2
(6.276414) can0 12E#00000000000000A0
(6.276517) can0 174#EF7F0000186B01F7
(6.286461) can0 178#0080022048950159
(6.286596) can0 290#0020000000000000
(6.286699) can0 12B#0000000000014F78
(6.296704) can0 174#EF7F0000176B0256
(6.296830) can0 178#F57F033247950204
(6.296933) can0 290#0020000000000000
(6.297004) can0 12B#0000000000013F78
(6.306948) can0 128#1388030000EC78C2
(6.307073) can0 290#0030000000000000
(6.307177) can0 12B#0000000000014F78
(6.317204) can0 174#F57F00002D6B04EE
(6.317330) can0 290#0040000000000000
(6.317433) can0 12B#0000000000013F78
(6.317544) can0 128#1388030000EC7822
(6.327433) can0 290#0020000000000000
(6.327568) can0 12B#0000000000014F78
(6.327671) can0 174#FA7F0000356B069C
(6.337676) can0 178#088007213C9506D4
(6.337802) can0 290#0030000000000000
(6.337913) can0 12B#0000000000013F78
(6.347921) can0 128#1388030000EC7842
(6.348046) can0 12E#0000000000000040
(6.348157) can0 290#0030000000000000
(6.348228) can0 12B#0000000000014F78
(6.358167) can0 174#FA7F0000336B083F
(6.358293) can0 178#0E80000044950839
(6.358404) can0 290#0030000000000000
(6.358474) can0 12B#0000000000013F78
(6.368424) can0 128#1388030000EC7862
(6.368558) can0 290#0050000000000000
(6.368669) can0 12B#0000000000014F79
(6.368772) can0 12A#1228012000000000
(6.368841) can0 290#0040000000000000
(6.378653) can0 12B#0000000000013F78
(6.378780) can0 128#1388030000EC7882
(6.378884) can0 12E#0000000000000080
(6.388893) can0 174#F27F00002E6B0C04
(6.389020) can0 178#FD7F020F3C950CF2
(6.389122) can0 17C#000000003A870C81
(6.399134) can0 12E#00000000000000A0
(6.399261) can0 174#F87F0000236B0DF4
(6.399363) can0 178#FD7F03023E950DC9
(6.409377) can0 17C#0000000029870D08
(6.409504) can0 174#F57F0000276B0E33
(6.409614) can0 178#0B8004053A950E64
(6.419627) can0 17C#0000000029870E2F
(6.419754) can0 290#0040000000000000
(6.419829) can0 12C#0000000000000000
(6.419903) can0 5A0#00692000000000C9
(6.420008) can0 550#0000000000000060
(6.420110) can0 300#0F00000000000000
(6.420181) can0 174#EF7F00002D6B0FF0
(6.429881) can0 174#EF7F0000336B005A
(6.430007) can0 178#118006142C950062
(6.430109) can0 17C#000000005B8700C2
(6.440106) can0 174#EA7F0000336B0173
(6.440232) can0 178#0B80072F26950182
(6.440334) can0 17C#00000000618701F8
(6.450349) can0 290#0060000000000000
(6.450476) can0 174#EC7F0000336B0287
(6.450586) can0 178#118008022C950202
(6.460593) can0 17C#000000004D8702E5
(6.460720) can0 174#F57F0000306B0320
(6.460822) can0 178#1480090F3E950315
(6.470834) can0 17C#00000000378703BF
(6.470961) can0 290#0040000000000000
(6.471065) can0 550#0000000000000080
(6.481091) can0 174#FA7F0000336B04A3
(6.481217) can0 178#0B800A134A9504A4
(6.481320) can0 174#008000003C6B05F0
(6.481422) can0 178#FA7F0B034D950581
(6.491320) can0 17C#00000000458705BA
(6.491447) can0 174#FD7F0000436B065F
(6.491558) can0 178#F57F0C084C950658
(6.501570) can0 17C#0000000051870683
(6.501697) can0 290#0050000000000000
(6.501815) can0 12B#0000000000013F78
(6.501889) can0 174#FA7F00003C6B0702
(6.511812) can0 178#FA7F0D2F4D950742
(6.511938) can0 17C#000000004E870700
(6.512049) can0 290#0050000000000000
(6.512120) can0 174#F57F0000306B08EF
(6.522051) can0 178#0B800E07509508F1
(6.522177) can0 17C#00000000428708B1
(6.522288) can0 290#0040000000000000
(6.532306) can0 300#0F00000000000000
(6.532397) can0 174#F57F0000256B0963
(6.532503) can0 178#19800F0D4A950929
(6.532614) can0 174#F57F0000206B0ACD
(6.532716) can0 178#1F8000023F950A08
(6.542543) can0 17C#0000000011870A7F
(6.542670) can0 290#0050000000000000
(6.542773) can0 174#F27F0000206B0B5E
(6.552778) can0 178#1C80010836950BA0
(6.552905) can0 17C#000000000A870BFA
(6.553008) can0 290#0050000000000000
(6.553079) can0 174#EC7F00001D6B0C18
(6.563021) can0 178#1C8000002F950C9E
(6.563147) can0 17C#000000000E870CAF
(6.563250) can0 290#0030000000000000
(6.573264) can0 12B#0000000000013F78
(6.573354) can0 174#EA7F00001A6B0D5C
(6.573460) can0 178#148001282F950DED
(6.573570) can0 17C#000000000E870DB2
(6.583521) can0 290#0050000000000000
(6.583656) can0 12B#0000000000014F78
(6.583765) can0 174#EF7F0000176B0ECA
(6.583874) can0 178#0680022031950EFA
(6.593750) can0 17C#0000000010870E84
(6.593879) can0 174#F87F0000156B0FE3
(6.593981) can0 178#FD7F032139950F89
(6.604000) can0 17C#000000001F870F1F
(6.604127) can0 174#F87F00001D6B0054
(6.604229) can0 178#038004233F9500BA
(6.614236) can0 17C#0000000037870098
(6.614362) can0 174#F57F0000276B0188
(6.614465) can0 178#168005233C9501CC
(6.624479) can0 17C#000000005087015F
(6.624613) can0 290#0040000000000000
(6.624717) can0 174#EF7F00002D6B0271
(6.634722) can0 178#24800622369502AB
(6.634848) can0 17C#00000000678702DA
(6.634951) can0 290#0040000000000000
(6.635021) can0 300#0F00000000000000
(6.635092) can0 174#EC7F00002E6B0307
(6.644978) can0 178#248007242F95032E
(6.645104) can0 17C#0000000074870353
(6.645207) can0 174#EF7F0000336B042E
(6.645310) can0 178#1C8008232C95047D
(6.655208) can0 17C#0000000071870489
(6.655334) can0 174#F57F0000366B056B
(6.655437) can0 178#0B8009202F95050B
(6.665460) can0 17C#000000005C870521
(6.665594) can0 290#0050000000000000
(6.665698) can0 178#FA7F0A21339506E0
(6.675694) can0 17C#0000000048870618
(6.675825) can0 290#0050000000000000
(6.675898) can0 12B#0000000000014F78
(6.675968) can0 128#1388030000EC78C2
(6.676070) can0 17C#000000003C87074B
(6.685937) can0 290#0050000000000000
(6.686028) can0 12B#0000000000013F78
(6.686135) can0 450#0000000000000000
(6.686206) can0 290#0050000000000000
(6.686277) can0 12B#0000000000014F78
(6.686379) can0 290#0040000000000000
(6.696193) can0 12B#0000000000013F79
(6.696319) can0 174#EA7F0000276B0AA2
(6.696422) can0 290#0050000000000000
(6.696525) can0 12B#0000000000014F78
(6.706422) can0 128#1388030000EC7842
(6.706556) can0 290#0050000000000000
(6.706627) can0 12B#0000000000014F78
(6.706697) can0 174#E77F0000316B0C17
(6.706799) can0 178#008001203E950C2B
(6.716665) can0 290#0040000000000000
(6.716793) can0 12B#0000000000013F78
(6.716897) can0 128#1388030000EC7862
(6.726911) can0 12E#0000000000000060
(6.727037) can0 290#0040000000000000
(6.727108) can0 12B#0000000000014F78
(6.727211) can0 174#EA7F0000366B0E41
(6.737151) can0 290#0050000000000000
(6.737278) can0 12B#0000000000014F78
(6.737353) can0 128#1388030000EC7882
(6.737465) can0 290#0030000000000000
(6.747408) can0 12B#0000000000013F78
(6.747542) can0 174#EA7F00002B6B007A
(6.747644) can0 290#0040000000000000
(6.747748) can0 12B#0000000000014F78
(6.757637) can0 128#1388030000EC78A2
(6.757763) can0 12E#00000000000000A0
(6.757870) can0 174#EA7F00002A6B01E8
(6.767884) can0 178#168006213E950156
(6.768010) can0 290#0030000000000000
(6.768113) can0 12B#0000000000013F78
(6.778130) can0 12A#1228012000000000
(6.778220) can0 290#0030000000000000
(6.778290) can0 12B#0000000000014F78
(6.778405) can0 128#1388030000EC78C2
(6.778507) can0 12E#00000000000000C0
(6.788373) can0 290#0040000000000000
(6.788500) can0 12B#0000000000014F78
(6.788578) can0 174#EF7F00002B6B043A
(6.788688) can0 12B#0000000000013F78
(6.798619) can0 128#1388030000EC7822
(6.798744) can0 12E#0000000000000020
(6.798847) can0 174#F57F00001C6B0673
(6.798948) can0 178#F27F000042950681
(6.808870) can0 17C#00000000378706D6
(6.809005) can0 12E#0000000000000040
(6.809108) can0 12A#1228012000000000
(6.809177) can0 12C#0000000000000000
(6.809253) can0 5A0#0069200000000089
(6.819095) can0 174#F57F0000156B0856
(6.819221) can0 178#F57F0000349508E4
(6.819323) can0 17C#000000002F870864
(6.829338) can0 174#F57F0000176B0948
(6.829464) can0 178#EF7F01203695090B
(6.829572) can0 17C#0000000023870973
(6.839582) can0 290#0040000000000000
(6.839673) can0 174#00800000206B0A59
(6.839779) can0 178#EC7F022137950A67
(6.839884) can0 17C#0000000024870ADE
(6.849824) can0 290#0050000000000000
(6.849951) can0 174#FD7F00002A6B0B0D
(6.850054) can0 178#F87F03243C950B93
(6.860080) can0 17C#0000000032870BDE
(6.860207) can0 290#0040000000000000
(6.860311) can0 550#00000000000000C0
(6.860415) can0 174#F57F0000316B0C14
(6.870310) can0 178#0080042F47950C57
(6.870436) can0 17C#000000003F870C08
(6.870547) can0 174#F27F0000356B0D81
(6.880554) can0 178#088005124D950DDD
(6.880680) can0 17C#0000000045870D52
(6.880783) can0 174#EF7F0000316B0EFF
(6.890796) can0 178#0E80062444950E12
(6.890922) can0 17C#0000000053870E68
(6.891025) can0 174#F57F00002A6B0FAB
(6.901039) can0 178#118007262F950F77
(6.901165) can0 17C#0000000056870FFC
(6.901275) can0 174#F87F0000256B0070
(6.911295) can0 178#1C8008201D950014
(6.911421) can0 17C#000000004E870053
(6.911524) can0 300#0F00000000000000
(6.911600) can0 174#EF7F0000206B01D3
(6.911702) can0 178#27800925189501DA
(6.921538) can0 17C#0000000040870147
(6.921664) can0 174#EC7F00001A6B0234
(6.921774) can0 178#22800000259502E0
(6.931767) can0 17C#00000000378702A2
(6.931903) can0 174#F27F00001D6B031B
(6.932006) can0 178#088001253495039E
(6.942016) can0 17C#00000000358703BC
(6.942142) can0 174#FD7F0000286B04B5
(6.942253) can0 178#F87F02393E95042B
(6.952253) can0 17C#000000003F8704E0
(6.952380) can0 290#0040000000000000
(6.952451) can0 174#068000002D6B05B4
(6.952562) can0 178#F57F03213F95058C
(6.962510) can0 17C#000000004B8705B3
(6.962645) can0 290#0050000000000000
(6.962748) can0 174#088000002D6B0692
(6.962851) can0 178#FD7F042042950622
(6.972739) can0 17C#0000000055870685
(6.972871) can0 450#0000000000000000
