(0.367202) can0 290#0000000000000000
(0.367889) can0 12B#0000000000000000
(0.368071) can0 174#EC7F00002A6B0668
(0.368251) can0 178#278006244C950616
(0.368424) can0 17C#000000001087066C
(0.368605) can0 290#0000000000000000
(0.368742) can0 12B#0000000000000000
(0.368848) can0 128#7FFF0300007FFF5F
(0.368999) can0 12E#4000000000000040
(0.369175) can0 174#F27F0000256B074B
(0.369344) can0 178#308007264F9507FD
(0.369512) can0 17C#0000000010870771
(0.369674) can0 290#0000000000000000
(0.369796) can0 12B#0000000000000000
(0.369902) can0 12A#1208002000000000
(0.370054) can0 550#0000000000000080
(0.370290) can0 174#F27F0000276B08F3
(0.370452) can0 178#32800820459508E6
(0.370619) can0 17C#0000000019870849
(0.370781) can0 450#0000000000000000
(0.370949) can0 290#0000000000000000
(0.371079) can0 12B#0000000000000000
(0.371185) can0 128#7FFF0300007FFF7F
(0.371336) can0 12E#4000000000000060
(0.371513) can0 174#EF7F00002D6B09BE
(0.371675) can0 178#2A8009253C9509E2
(0.371837) can0 17C#000000001C8709DD
(0.371999) can0 290#0000000000000000
(0.372133) can0 12B#0000000000000000
(0.391709) can0 174#EA7F0000316B0ABF
(0.392137) can0 178#168000003A950A29
(0.392299) can0 17C#0000000015870A79
(0.392461) can0 290#0000000000000000
(0.392589) can0 12B#0000000000000000
(0.392695) can0 128#7FFF0300007FFF9F
(0.392842) can0 12E#4000000000000080
(0.393004) can0 174#E47F0000386B0B20
(0.393165) can0 178#FA7F012536950B6F
(0.393327) can0 17C#000000000E870BFC
(0.393496) can0 290#0000000000000000
(0.393619) can0 12B#0000000000000000
(0.397721) can0 174#EA7F0000396B0CFD
(0.397933) can0 178#E77F023933950CA3
(0.398167) can0 17C#0000000013870C32
(0.401139) can0 290#0000000000000000
(0.401397) can0 12B#0000000000000000
(0.401643) can0 128#7FFF0300007FFFBF
(0.401882) can0 12E#40000000000000A0
(0.402124) can0 12A#1208002000000000
(0.402376) can0 12C#0000000000000000
(0.402625) can0 5A0#0000000000000020
(0.403438) can0 550#00000000000000A0
(0.407700) can0 174#F27F0000336B0D84
(0.407931) can0 178#EA7F032139950D84
(0.408171) can0 17C#0000000023870D07
(0.408518) can0 450#0000000000000000
(0.411410) can0 290#0000000000000000
(0.411668) can0 12B#0000000000000000
(0.417701) can0 174#EF7F00002A6B0E67
(0.417930) can0 178#F57F042045950E92
(0.418168) can0 17C#000000003C870EBE
(0.421112) can0 290#0000000000000000
(0.421378) can0 12B#0000000000000000
(0.421608) can0 128#7FFF0300007FFFDF
(0.421856) can0 12E#40000000000000C0
(0.427693) can0 174#EC7F0000276B0F18
(0.427933) can0 178#F87F000048950F13
(0.428173) can0 17C#0000000056870FFC
(0.431236) can0 290#0000000000000000
(0.431490) can0 12B#0000000000000000
(0.437701) can0 174#EA7F00002A6B00F5
(0.437939) can0 178#FA7F000044950018
(0.438184) can0 17C#000000006087006A
(0.441130) can0 290#0000000000000000
(0.441385) can0 12B#0000000000000000
(0.441631) can0 128#7FFF0300007FFF3F
(0.441889) can0 12E#4000000000000020
(0.447709) can0 174#EA7F00002E6B01EE
(0.447945) can0 178#F87F01223C9501FC
(0.448187) can0 17C#000000004D8701C2
(0.451227) can0 290#0000000000000000
(0.451481) can0 12B#0000000000000000
(0.451712) can0 12A#1208002000000000
(0.453435) can0 550#00000000000000C0
(0.457701) can0 174#EA7F00002D6B0245
(0.457929) can0 178#F57F02203A9502A1
(0.458170) can0 17C#000000002F8702B6
(0.458519) can0 450#0000000000000000
(0.461339) can0 290#0000000000000000
(0.461591) can0 12B#0000000000000000
(0.461835) can0 128#7FFF0300007FFF5F
(0.462089) can0 12E#4000000000000040
(0.467697) can0 174#EA7F00002A6B03D2
(0.467936) can0 178#F27F0332399503D6
(0.468174) can0 17C#0000000026870328
(0.471250) can0 290#0000000000000000
(0.471510) can0 12B#0000000000000000
(0.477701) can0 174#EC7F0000276B04D7
(0.477935) can0 178#E77F042036950487
(0.478172) can0 17C#00000000318704E9
(0.481144) can0 290#0000000000000000
(0.481394) can0 12B#0000000000000000
(0.481639) can0 128#7FFF0300007FFF7F
(0.481893) can0 12E#4000000000000060
(0.487715) can0 174#EF7F00002A6B05A8
(0.487936) can0 178#EC7F0523339505F6
(0.488176) can0 17C#00000000378705F1
(0.491233) can0 290#0000000000000000
(0.491487) can0 12B#0000000000000000
(0.497701) can0 174#F27F0000306B06C7
(0.497932) can0 178#F27F06322F95067D
(0.498184) can0 17C#00000000378706D6
(0.501144) can0 290#0000000000000000
(0.501406) can0 12B#0000000000000000
(0.501650) can0 128#7FFF0300007FFF9F
(0.501907) can0 12E#4000000000000080
(0.502131) can0 12A#1208002000000000
(0.502370) can0 12C#0000000000000000
(0.502639) can0 5A0#0000000000000040
(0.503458) can0 550#0000000000000020
(0.507704) can0 174#F57F0000316B07DB
(0.507942) can0 178#F87F0721339507EF
(0.508180) can0 17C#000000003A87074E
(0.508515) can0 450#0000000000000000
(0.511417) can0 290#0000000000000000
(0.511662) can0 12B#0000000000000000
(0.517705) can0 174#F57F0000316B0860
(0.517939) can0 178#00800827349508B9
(0.518181) can0 17C#000000003D87087F
(0.521165) can0 290#0000000000000000
(0.521411) can0 12B#0000000000000000
(0.521661) can0 128#7FFF0300007FFFBF
(0.521903) can0 12E#40000000000000A0
(0.527700) can0 174#F57F00002B6B096A
(0.527931) can0 178#06800000349509BE
(0.528180) can0 17C#000000003C8709ED
(0.531251) can0 290#0000000000000000
(0.531505) can0 12B#0000000000000000
(0.537694) can0 174#F27F0000286B0A4F
(0.537926) can0 178#0880012034950AB8
(0.538167) can0 17C#000000003C870ACA
(0.541162) can0 290#0000000000000000
(0.541420) can0 12B#0000000000000000
(0.541661) can0 128#7FFF0300007FFFDF
(0.541904) can0 12E#40000000000000C0
(0.547701) can0 174#EF7F00002A6B0B0E
(0.547936) can0 178#0380000034950BB0
(0.548188) can0 17C#000000003F870B5B
(0.551273) can0 290#0000000000000000
(0.551513) can0 12B#0000000000000000
(0.551754) can0 12A#1208002000000000
(0.553445) can0 550#0000000000000040
(0.557693) can0 174#EF7F0000276B0CD8
(0.557921) can0 178#0B80011236950C5A
(0.558174) can0 17C#000000004A870CC9
(0.558527) can0 450#0000000000000000
(0.561407) can0 290#0000000000000000
(0.561653) can0 12B#0000000000000000
(0.561899) can0 128#7FFF0300007FFF3F
(0.562146) can0 12E#4000000000000020
(0.567701) can0 174#EF7F00001C6B0D6D
(0.567932) can0 178#1F80020F36950D43
(0.568177) can0 17C#0000000051870D4C
(0.571236) can0 290#0000000000000000
(0.571494) can0 12B#0000000000000000
(0.577694) can0 174#EF7F00001A6B0E4F
(0.577924) can0 178#2280030231950EFB
(0.578174) can0 17C#000000004D870E79
(0.581134) can0 290#0000000000000000
(0.581379) can0 12B#0000000000000000
(0.581635) can0 128#7FFF0300007FFF5F
(0.581886) can0 12E#4000000000000040
(0.587703) can0 174#F27F0000206B0F2A
(0.587938) can0 178#148004052C950F81
(0.588184) can0 17C#0000000040870FE1
(0.591264) can0 290#0000000000000000
(0.591509) can0 12B#0000000000000000
(0.597709) can0 174#F57F0000286B0013
(0.597937) can0 178#008005122C950051
(0.598181) can0 17C#000000002C870000
(0.601179) can0 290#0000000000000000
(0.601425) can0 12B#0000000000000000
(0.601679) can0 128#7FFF0300007FFF7F
(0.601927) can0 12E#4000000000000060
(0.602169) can0 12A#1208002000000000
(0.602414) can0 12C#0000000000000000
(0.602662) can0 5A0#0000000000000060
(0.603443) can0 550#0000000000000060
(0.607696) can0 174#FA7F00002D6B01DB
(0.607938) can0 178#0080061431950106
(0.608181) can0 17C#000000001687013A
(0.608526) can0 450#0000000000000000
(0.611482) can0 290#0000000000000000
(0.611720) can0 12B#0000000000000000
(0.617696) can0 174#F57F0000306B023D
(0.617941) can0 178#1180072F3E950260
(0.618186) can0 17C#0000000011870297
(0.621163) can0 290#0000000000000000
(0.621406) can0 12B#0000000000000000
(0.621647) can0 128#7FFF0300007FFF9F
(0.621896) can0 12E#4000000000000080
(0.627696) can0 174#EC7F0000336B039A
(0.627939) can0 178#1C8008024595032A
(0.628181) can0 17C#000000001B870385
(0.631241) can0 290#0000000000000000
(0.631494) can0 12B#0000000000000000
(0.637704) can0 174#E77F0000386B047C
(0.637938) can0 178#1180090F4895043F
(0.638177) can0 17C#000000001E87045F
(0.641143) can0 290#0000000000000000
(0.641402) can0 12B#0000000000000000
(0.641648) can0 128#7FFF0300007FFFBF
(0.641891) can0 12E#40000000000000A0
(0.647701) can0 174#E47F0000396B0509
(0.647926) can0 178#03800A13459505ED
(0.648178) can0 17C#000000001E870542
(0.651230) can0 290#0000000000000000
(0.651482) can0 12B#0000000000000000
(0.651723) can0 12A#1208002000000000
(0.653442) can0 550#0000000000000080
(0.657704) can0 174#EA7F0000396B062F
(0.657938) can0 178#00800B0341950664
(0.658183) can0 17C#000000002F8706C2
(0.658439) can0 450#0000000000000000
(0.661357) can0 290#0000000000000000
(0.661616) can0 12B#0000000000000000
(0.661858) can0 128#7FFF0300007FFFDF
(0.662100) can0 12E#40000000000000C0
(0.667704) can0 174#EF7F0000396B0706
(0.667935) can0 178#06800C083C95074A
(0.668176) can0 17C#000000004D87078C
(0.671240) can0 290#0000000000000000
(0.671496) can0 12B#0000000000000000
(0.677700) can0 174#F27F0000336B08ED
(0.677933) can0 178#0B800D2F3E9508C0
(0.678185) can0 17C#00000000568708AF
(0.681158) can0 290#0000000000000000
(0.681404) can0 12B#0000000000000000
(0.681653) can0 128#7FFF0300007FFF3F
(0.681895) can0 12E#4000000000000020
(0.687707) can0 174#EF7F0000286B0937
(0.687939) can0 178#0E800E073A950987
(0.688182) can0 17C#00000000428709AC
(0.691244) can0 290#0000000000000000
(0.691499) can0 12B#0000000000000000
(0.697697) can0 174#F27F0000226B0A40
(0.697948) can0 178#0B800F0D33950AC6
(0.698180) can0 17C#000000002F870A5E
(0.701172) can0 290#0000000000000000
(0.701419) can0 12B#0000000000000000
(0.701668) can0 128#7FFF0300007FFF5F
(0.701915) can0 12E#4000000000000040
(0.702169) can0 12A#1208002000000000
(0.702418) can0 12C#0000000000000000
(0.702665) can0 5A0#0000000000000080
(0.703438) can0 550#00000000000000A0
(0.707701) can0 174#F57F0000256B0B59
(0.707932) can0 178#0B8000022F950BDD
(0.708196) can0 17C#0000000034870BDB
(0.708528) can0 450#0000000000000000
(0.711463) can0 290#0000000000000000
(0.711709) can0 12B#0000000000000000
(0.717697) can0 174#FD7F00002B6B0CD1
(0.717928) can0 178#0880010833950CAA
(0.718180) can0 17C#000000004E870CCF
(0.721155) can0 290#0000000000000000
(0.721398) can0 12B#0000000000000000
(0.721640) can0 128#7FFF0300007FFF7F
(0.721890) can0 12E#4000000000000060
(0.727700) can0 174#FA7F0000306B0DDA
(0.727939) can0 178#FA7F000039950D54
(0.728177) can0 17C#0000000061870D64
(0.731215) can0 290#0000000000000000
(0.731465) can0 12B#0000000000000000
(0.737694) can0 174#F27F00002A6B0E38
(0.737929) can0 178#EF7F01283F950E47
(0.738167) can0 17C#0000000059870E67
(0.741169) can0 290#0000000000000000
(0.741416) can0 12B#0000000000000000
(0.741668) can0 128#7FFF0300007FFF9F
(0.741913) can0 12E#4000000000000080
(0.747697) can0 174#EF7F00001F6B0FDB
(0.747937) can0 178#F87F022044950F87
(0.748189) can0 17C#000000003F870F2F
(0.751268) can0 290#0000000000000000
(0.751516) can0 12B#0000000000000000
(0.751760) can0 12A#1208002000000000
(0.753439) can0 550#00000000000000C0
(0.757711) can0 174#EF7F00001F6B0060
(0.757949) can0 178#0880032152950076
(0.758187) can0 17C#000000002C870000
(0.758436) can0 450#0000000000000000
(0.761414) can0 290#0000000000000000
(0.761656) can0 12B#0000000000000000
(0.761897) can0 128#7FFF0300007FFFBF
(0.762150) can0 12E#40000000000000A0
(0.767705) can0 174#EF7F00002D6B0156
(0.767933) can0 178#118004235A95017D
(0.768179) can0 17C#0000000021870198
(0.771240) can0 290#0000000000000000
(0.771494) can0 12B#0000000000000000
(0.777701) can0 174#EF7F0000396B026F
(0.777930) can0 178#16800523529502B2
(0.778171) can0 17C#000000001C870212
(0.781162) can0 290#0000000000000000
(0.781409) can0 12B#0000000000000000
(0.781651) can0 128#7FFF0300007FFFDF
(0.781893) can0 12E#40000000000000C0
(0.787697) can0 174#F27F0000386B03A2
(0.787930) can0 178#1980062241950344
(0.788179) can0 17C#000000001E87030C
(0.791246) can0 290#0000000000000000
(0.791498) can0 12B#0000000000000000
(0.797704) can0 174#F87F00002D6B0408
(0.797934) can0 178#198007242F95044D
(0.798182) can0 17C#000000001E87045F
(0.801140) can0 290#0000000000000000
(0.801391) can0 12B#0000000000000000
(0.801637) can0 128#7FFF0300007FFF3F
(0.801884) can0 12E#4000000000000020
(0.802125) can0 12A#1208002000000000
(0.802385) can0 12C#0000000000000000
(0.802635) can0 5A0#00000000000000A0
(0.803451) can0 550#0000000000000020
(0.807708) can0 174#F87F0000226B0593
(0.807940) can0 178#0B80082326950558
(0.808182) can0 17C#0000000024870565
(0.808524) can0 450#0000000000000000
(0.811432) can0 290#0000000000000000
(0.811689) can0 12B#0000000000000000
(0.817701) can0 174#F27F0000226B06DC
(0.817938) can0 178#FD7F0920269506DC
(0.818183) can0 17C#00000000318706D3
(0.821179) can0 290#0000000000000000
(0.821425) can0 12B#0000000000000000
(0.821675) can0 128#7FFF0300007FFF5F
(0.821923) can0 12E#4000000000000040
(0.827697) can0 174#EF7F00002A6B0792
(0.827926) can0 178#FA7F0A212E950760
(0.828171) can0 17C#000000003887074D
(0.831347) can0 290#0000000000000000
(0.831602) can0 12B#0000000000000000
(0.837693) can0 174#EF7F00002E6B082F
(0.837924) can0 178#00800B2939950877
(0.838172) can0 17C#0000000035870873
(0.841151) can0 290#0000000000000000
(0.841392) can0 12B#0000000000000000
(0.841634) can0 128#7FFF0300007FFF7F
(0.841884) can0 12E#4000000000000060
(0.847700) can0 174#EF7F00002D6B09BE
(0.847935) can0 178#08800000429509F2
(0.848173) can0 17C#00000000348709E1
(0.851226) can0 290#0000000000000000
(0.851469) can0 12B#0000000000000000
(0.851709) can0 12A#1208002000000000
(0.853449) can0 550#0000000000000040
(0.857702) can0 174#EF7F00002E6B0A15
(0.857929) can0 178#1180000047950A6A
(0.858171) can0 17C#000000003A870ACF
(0.858523) can0 450#0000000000000000
(0.861356) can0 290#0000000000000000
(0.861608) can0 12B#0000000000000000
(0.861851) can0 128#7FFF0300007FFF9F
(0.862105) can0 12E#4000000000000080
(0.867694) can0 174#EF7F0000316B0B96
(0.867931) can0 178#118000FF42950B58
(0.868165) can0 17C#0000000045870B1C
(0.871258) can0 290#0030000000000000
(0.871508) can0 12B#0000000000011F76
(0.877693) can0 174#EF7F00002E6B0C5B
(0.877941) can0 178#0B8000003C950C3D
(0.878176) can0 17C#0000000045870C4F
(0.881162) can0 290#0030000000000000
(0.881414) can0 12B#0000000000011F76
(0.881648) can0 128#1388030000EC78A2
(0.881898) can0 12E#00000000000000A0
(0.887693) can0 174#EF7F0000286B0D43
(0.887928) can0 178#0E80012036950D3B
(0.888165) can0 17C#0000000038870D9F
(0.891240) can0 290#0000000000000000
(0.891492) can0 12B#0000000000011F75
(0.897701) can0 174#F27F00002E6B0E3E
(0.897929) can0 178#1680022233950E67
(0.898166) can0 17C#000000002C870EA6
(0.901176) can0 290#0010000000000000
(0.901421) can0 12B#0000000000011F76
(0.901666) can0 128#1388030000EC78C2
(0.901904) can0 12E#00000000000000C0
(0.902145) can0 12A#1208002000000000
(0.902406) can0 12C#0000000000000000
(0.902641) can0 5A0#00692000000000C9
(0.903443) can0 550#0000000000000060
(0.907399) can0 300#0F00000000000000
(0.907694) can0 174#F57F0000396B0F3F
(0.907930) can0 178#0E8003262C950FAB
(0.908167) can0 17C#0000000034870FAF
(0.908526) can0 450#0000000000000000
(0.911447) can0 290#0010000000000000
(0.911705) can0 12B#0000000000011F76
(0.917700) can0 174#F87F00003C6B00EB
(0.917933) can0 178#038004252F9500CB
(0.918180) can0 17C#000000004E870053
(0.921123) can0 290#0010000000000000
(0.921377) can0 12B#0000000000011F75
(0.921606) can0 128#1388030000EC7822
(0.921854) can0 12E#0000000000000020
(0.927697) can0 174#F27F0000356B011D
(0.927929) can0 178#0080052039950195
(0.928178) can0 17C#000000005E870156
(0.931190) can0 290#0020000000000000
(0.931437) can0 12B#0000000000011F76
(0.937698) can0 174#EF7F0000276B027E
(0.937930) can0 178#088006213F950246
(0.938178) can0 17C#00000000558702F1
(0.941120) can0 290#0020000000000000
(0.941373) can0 12B#0000000000011F76
(0.941603) can0 128#1388030000EC7842
(0.941850) can0 12E#0000000000000040
(0.947704) can0 174#F57F0000176B039A
(0.947940) can0 178#11800721449503CF
(0.948178) can0 17C#000000003F8703B3
(0.951226) can0 290#0030000000000000
(0.951482) can0 12B#0000000000011F76
(0.951716) can0 12A#1208012000000000
(0.953453) can0 550#0000000000000080
(0.957705) can0 174#FA7F0000116B0490
(0.957941) can0 178#14800820479504C5
(0.958186) can0 17C#00000000298704FD
(0.958532) can0 450#0000000000000000
(0.961361) can0 290#0020000000000000
(0.961604) can0 12B#0000000000011F75
(0.961832) can0 128#1388030000EC7862
(0.962080) can0 12E#0000000000000060
(0.967700) can0 174#FA7F0000176B0588
(0.967931) can0 178#0E8009253F9505F4
(0.968187) can0 17C#00000000218705EC
(0.971229) can0 290#0010000000000000
(0.971482) can0 12B#0000000000011F76
(0.977702) can0 174#F57F0000256B06D8
(0.977937) can0 178#00800A292F9506A6
(0.978175) can0 17C#000000002A87064B
(0.981154) can0 290#0010000000000000
(0.981412) can0 12B#0000000000011F76
(0.981646) can0 128#1388030000EC7882
(0.981897) can0 12E#0000000000000080
(0.987701) can0 174#F27F0000316B0755
(0.987937) can0 178#EF7F00001B950738
(0.988179) can0 17C#000000003A87074E
(0.991244) can0 290#0010000000000000
(0.991492) can0 12B#0000000000011F76
(0.997693) can0 174#EF7F0000316B08B1
(0.997925) can0 178#EA7F01201395089B
(0.998166) can0 17C#000000004A8708BD
(1.001130) can0 290#0020000000000000
(1.001374) can0 12B#0000000000011F76
(1.001613) can0 128#1388030000EC78A2
(1.001857) can0 12E#00000000000000A0
(1.002106) can0 12A#1208012000000000
(1.002353) can0 12C#0000000000000000
(1.002606) can0 5A0#0069200000000029
(1.003454) can0 550#00000000000000A0
(1.007406) can0 300#0F00000000000000
(1.007697) can0 174#EF7F00002A6B0934
(1.007934) can0 178#F87F000020950901
(1.008185) can0 17C#000000004B87092F
(1.008526) can0 450#0000000000000000
(1.011402) can0 290#0030000000000000
(1.011658) can0 12B#0000000000011F76
(1.017691) can0 174#EF7F0000236B0A90
(1.017921) can0 178#0B80012036950A5C
(1.018173) can0 17C#0000000031870A4F
(1.021120) can0 290#0010000000000000
(1.021363) can0 12B#0000000000011F75
(1.021591) can0 128#1388030000EC78C2
(1.021835) can0 12E#00000000000000C0
(1.027697) can0 174#EC7F0000236B0B6A
(1.027926) can0 178#1680022148950B7C
(1.028181) can0 17C#0000000016870BE8
(1.031222) can0 290#0010000000000000
(1.031468) can0 12B#0000000000011F76
(1.037697) can0 174#EA7F0000226B0C65
(1.037928) can0 178#1980032450950CDE
(1.038169) can0 17C#0000000006870CA3
(1.041148) can0 290#0020000000000000
(1.041401) can0 12B#0000000000011F76
(1.041636) can0 128#1388030000EC7822
(1.046200) can0 12E#0000000000000020
(1.047697) can0 174#EA7F0000226B0D78
(1.047925) can0 178#1C80042F4A950DCD
(1.056443) can0 17C#000000000B870D3B
(1.056613) can0 290#0030000000000000
(1.056775) can0 12B#0000000000011F76
(1.056896) can0 12A#1208012000000000
(1.057001) can0 550#00000000000000C0
(1.066699) can0 174#EF7F0000286B0E64
(1.066865) can0 178#198005123F950E55
(1.067026) can0 17C#000000001C870E8E
(1.067188) can0 450#0000000000000000
(1.067310) can0 290#0000000000000000
(1.076929) can0 12B#0000000000011F76
(1.077049) can0 128#1388030000EC7842
(1.077194) can0 12E#0000000000000040
(1.077356) can0 174#F57F00002E6B0FAD
(1.087172) can0 178#1180062436950FA1
(1.087333) can0 17C#0000000038870FA5
(1.087502) can0 290#0010000000000000
(1.097415) can0 12B#0000000000011F76
(1.097543) can0 174#F27F0000316B0006
(1.097695) can0 178#0B8007262F95001D
(1.097861) can0 17C#000000004B8700DA
(1.107658) can0 290#0010000000000000
(1.107786) can0 12B#0000000000011F76
(1.107892) can0 128#1388030000EC7862
(1.108045) can0 12E#0000000000000060
(1.108215) can0 174#EF7F0000306B01CB
(1.117911) can0 178#038008203695015C
(1.118073) can0 17C#000000004B8701C7
(1.118250) can0 290#0020000000000000
(1.118412) can0 12B#0000000000011F76
(1.118537) can0 174#EF7F0000336B0260
(1.128168) can0 178#068009253F950275
(1.128329) can0 17C#0000000042870263
(1.128496) can0 290#0030000000000000
(1.138386) can0 12B#0000000000011F76
(1.138516) can0 128#1388030000EC7882
(1.138661) can0 12E#0000000000000080
(1.138829) can0 12A#1208012000000000
(1.138950) can0 12C#0000000000000000
(1.139056) can0 5A0#0069200000000049
(1.148629) can0 550#0000000000000020
(1.148793) can0 300#0F00000000000000
(1.148915) can0 174#F27F00003B6B032E
(1.149061) can0 178#1680000047950311
(1.158874) can0 17C#00000000458703F4
(1.159037) can0 450#0000000000000000
(1.159159) can0 290#0010000000000000
(1.159306) can0 12B#0000000000011F76
(1.159427) can0 174#FA7F00003B6B04AF
(1.169115) can0 178#19800125479504ED
(1.169277) can0 17C#00000000518704B9
(1.169439) can0 290#0030000000000000
(1.179372) can0 12B#0000000000011F76
(1.179501) can0 128#1388030000EC78A2
(1.179646) can0 12E#00000000000000A0
(1.179808) can0 174#03800000356B0594
(1.179977) can0 178#118002393995052A
(1.189601) can0 17C#000000006387058F
(1.189763) can0 290#0000000000000000
(1.189926) can0 12B#0000000000011F76
(1.190047) can0 174#0B800000336B0664
(1.199846) can0 178#0B8003212C95069E
(1.200007) can0 17C#000000006A87062B
(1.200199) can0 290#0030000000000000
(1.210087) can0 12B#0000000000011F76
(1.210208) can0 128#1388030000EC78C2
(1.210353) can0 12E#00000000000000C0
(1.210524) can0 174#08800000336B079E
(1.220330) can0 178#0B80042025950796
(1.220496) can0 17C#000000006487073F
(1.220659) can0 290#0020000000000000
(1.230586) can0 12B#0000000000011F76
(1.230707) can0 12A#1208012000000000
(1.230813) can0 550#0000000000000040
(1.230961) can0 174#038000002D6B0801
(1.231123) can0 178#0E800000299508EC
(1.231291) can0 17C#000000005B87082A
(1.240820) can0 450#0000000000000000
(1.240943) can0 290#0050000000000000
(1.241097) can0 12B#0000000000011F76
(1.241218) can0 128#1388030000EC7822
(1.241371) can0 12E#0000000000000020
(1.251059) can0 174#FA7F0000226B09B5
(1.251228) can0 178#1180000034950989
(1.251405) can0 17C#00000000568709B2
(1.261302) can0 290#0000000000000000
(1.261472) can0 12B#0000000000011F76
(1.261601) can0 174#F57F0000206B0ACD
(1.261754) can0 178#118001223C950AA5
(1.271552) can0 17C#0000000055870A19
(1.271714) can0 290#0000000000000000
(1.271837) can0 12B#0000000000011F76
(1.271942) can0 128#1388030000EC7842
(1.272087) can0 12E#0000000000000040
(1.281801) can0 174#EF7F0000276B0B8B
(1.281970) can0 178#1980022037950B73
(1.282131) can0 17C#0000000051870B02
(1.282293) can0 290#0030000000000000
(1.292031) can0 12B#0000000000011F76
(1.292152) can0 174#E77F0000306B0C98
(1.292297) can0 178#1C8003322E950CE7
(1.292459) can0 17C#000000004B870C46
(1.302274) can0 290#0000000000000000
(1.302443) can0 12B#0000000000011F76
(1.302572) can0 128#1388030000EC7862
(1.302724) can0 12E#0000000000000060
(1.312518) can0 12A#1208012000000000
(1.312639) can0 12C#0000000000000000
(1.312745) can0 5A0#0069200000000069
(1.312892) can0 550#0000000000000060
(1.313055) can0 300#0F00000000000000
(1.313178) can0 174#E17F0000386B0D5A
(1.322760) can0 178#1C8004202B950D7A
(1.322928) can0 17C#0000000040870DDB
(1.323091) can0 450#0000000000000000
(1.323213) can0 290#0020000000000000
(1.333003) can0 12B#0000000000011F76
(1.333124) can0 174#E17F0000396B0EF2
(1.333269) can0 178#198005232E950E30
(1.333431) can0 17C#0000000032870EB7
(1.343259) can0 290#0030000000000000
(1.343422) can0 12B#0000000000011F77
(1.343589) can0 128#1388030000EC7882
(1.343750) can0 12E#0000000000000080
(1.353500) can0 174#EA7F0000366B0F5C
(1.353662) can0 178#0E80063233950F81
(1.353828) can0 17C#0000000029870F32
(1.363767) can0 290#0030000000000000
(1.363897) can0 12B#0000000000011F76
(1.364047) can0 174#F27F0000356B0000
(1.364209) can0 178#0380072133950029
(1.373974) can0 17C#000000002C870000
(1.374141) can0 290#0030000000000000
(1.374263) can0 12B#0000000000011F77
(1.374409) can0 128#1388030000EC78A2
(1.384217) can0 12E#00000000000000A0
(1.384380) can0 174#FD7F0000336B0144
(1.384549) can0 178#FD7F08273A950103
(1.394481) can0 17C#0000000037870185
(1.394644) can0 290#0020000000000000
(1.394806) can0 12B#0000000000011F76
(1.394975) can0 12A#1208012000000000
(1.395111) can0 550#0000000000000080
(1.404703) can0 174#00800000336B0225
(1.404866) can0 178#FD7F000041950225
(1.405028) can0 17C#000000003A870227
(1.414946) can0 450#0000000000000000
(1.415069) can0 290#0030000000000000
(1.415216) can0 12B#0000000000011F77
(1.415378) can0 128#1388030000EC78C2
(1.425189) can0 12E#00000000000000C0
(1.425351) can0 174#FA7F0000336B03F0
(1.425521) can0 178#068001203F9503CC
(1.435432) can0 17C#00000000318703BA
(1.435602) can0 290#0040000000000000
(1.435765) can0 12B#0000000000011F76
(1.445689) can0 174#F57F0000336B04FF
(1.445853) can0 178#0B80000037950455
(1.446015) can0 17C#000000001F8704D0
(1.446177) can0 290#0040000000000000
(1.446299) can0 12B#0000000000011F77
(1.455918) can0 128#1388030000EC7822
(1.456079) can0 12E#0000000000000020
(1.456241) can0 174#EF7F0000396B053C
(1.466161) can0 178#11800112319505F4
(1.466322) can0 17C#000000001F8705CD
(1.466491) can0 290#0000000000000000
(1.476404) can0 12B#0000000000011F77
(1.476533) can0 174#EA7F0000406B06E4
(1.476679) can0 178#1C80020F3695066B
(1.476843) can0 17C#00000000358706D5
(1.486647) can0 290#0030000000000000
(1.486810) can0 12B#0000000000011F76
(1.486972) can0 128#1388030000EC7842
(1.496895) can0 12E#0000000000000040
(1.497058) can0 12A#1208012000000000
(1.497179) can0 12C#0000000000000000
(1.497285) can0 5A0#0069200000000089
(1.497432) can0 550#00000000000000A0
(1.497601) can0 300#0F00000000000000
(1.497731) can0 174#EA7F00003C6B07BB
(1.507149) can0 178#1F80030241950776
(1.507311) can0 17C#000000004A870706
(1.507488) can0 450#0000000000000000
(1.507611) can0 290#0020000000000000
(1.517376) can0 12B#0000000000011F77
(1.517542) can0 174#EA7F0000356B0883
(1.517712) can0 178#1F80040545950834
(1.527619) can0 17C#00000000508708AA
(1.527788) can0 290#0020000000000000
(1.527917) can0 12B#0000000000011F77
(1.528058) can0 128#1388030000EC7862
(1.528235) can0 12E#0000000000000060
(1.537863) can0 174#EA7F00002B6B098F
(1.538032) can0 178#1180051242950919
(1.538201) can0 17C#00000000488709A3
(1.548105) can0 290#0030000000000000
(1.548275) can0 12B#0000000000011F77
(1.548397) can0 174#E47F00002A6B0A26
(1.548558) can0 178#0380061442950AEA
(1.558361) can0 17C#000000003F870A46
(1.558540) can0 290#0010000000000000
(1.558703) can0 12B#0000000000011F77
(1.558824) can0 128#1388030000EC7882
(1.558969) can0 12E#0000000000000080
(1.568590) can0 174#E17F00002D6B0B85
(1.568752) can0 178#F87F072F3F950B8C
(1.568914) can0 17C#0000000035870B54
(1.578835) can0 290#0020000000000000
(1.578998) can0 12B#0000000000011F77
(1.579120) can0 12A#1208012000000000
(1.579225) can0 550#00000000000000C0
(1.579372) can0 174#E47F0000306B0C7F
(1.589076) can0 178#EC7F08023E950CF9
(1.589238) can0 17C#000000002F870C10
(1.589400) can0 450#0000000000000000
(1.589531) can0 290#0020000000000000
(1.589637) can0 12B#0000000000011F77
(1.589742) can0 128#1388030000EC78A2
(1.599319) can0 12E#00000000000000A0
(1.599490) can0 174#EA7F00002B6B0DFB
(1.599651) can0 178#E77F090F3E950DF4
(1.609577) can0 17C#0000000024870D8D
(1.609740) can0 290#0020000000000000
(1.609862) can0 12B#0000000000011F77
(1.609967) can0 174#EA7F00002A6B0E53
(1.610113) can0 178#F87F0A133F950EF0
(1.610281) can0 17C#0000000023870E20
(1.619805) can0 290#0030000000000000
(1.619968) can0 12B#0000000000011F77
(1.620089) can0 128#1388030000EC78C2
(1.620235) can0 12E#00000000000000C0
(1.630048) can0 174#EA7F0000396B0FDA
(1.630210) can0 178#08800B033A950F8B
(1.630372) can0 17C#0000000034870FAF
(1.640291) can0 290#0030000000000000
(1.640413) can0 12B#0000000000011F77
(1.640527) can0 174#EA7F0000496B0029
(1.640672) can0 178#11800C0834950022
(1.640835) can0 17C#0000000048870056
(1.650536) can0 290#0040000000000000
(1.650698) can0 12B#0000000000011F77
(1.650820) can0 128#1388030000EC7822
(1.650965) can0 12E#0000000000000020
(1.660791) can0 12A#1208012000000000
(1.660912) can0 12C#0000000000000000
(1.661018) can0 5A0#00692000000000A9
(1.661165) can0 550#0000000000000020
(1.661328) can0 300#0F00000000000000
(1.661457) can0 174#EC7F00004C6B016E
(1.661619) can0 178#06800D2F369501DF
(1.671020) can0 17C#000000004B8701C7
(1.671182) can0 450#0000000000000000
(1.671313) can0 290#0030000000000000
(1.671460) can0 12B#0000000000011F77
(1.671635) can0 174#F27F0000466B02FE
(1.681263) can0 178#F87F0E07399502B7
(1.681437) can0 17C#0000000040870260
(1.681612) can0 290#0030000000000000
(1.681734) can0 12B#0000000000011F77
(1.681846) can0 128#1388030000EC7842
(1.691519) can0 12E#0000000000000040
(1.691682) can0 174#F57F00003C6B032A
(1.691846) can0 178#F57F0F0D37950394
(1.701749) can0 17C#0000000032870336
(1.701918) can0 290#0030000000000000
(1.702040) can0 12B#0000000000011F77
(1.702154) can0 174#F57F0000316B04FC
(1.702299) can0 178#FD7F000237950401
(1.711992) can0 17C#0000000024870478
(1.712154) can0 290#0030000000000000
(1.712276) can0 12B#0000000000011F77
(1.712382) can0 128#1388030000EC7862
(1.712535) can0 12E#0000000000000060
(1.722248) can0 174#F57F00002A6B0579
(1.722410) can0 178#038001083795056C
(1.722578) can0 17C#000000001E870542
(1.722740) can0 290#0020000000000000
(1.732482) can0 12B#0000000000011F77
(1.732603) can0 12A#1208012000000000
(1.732708) can0 550#0000000000000040
(1.732861) can0 174#EF7F0000276B060A
(1.733023) can0 178#0380000036950632
(1.742721) can0 17C#0000000024870642
(1.742890) can0 450#0000000000000000
(1.743013) can0 290#0000000000000000
(1.743160) can0 12B#0000000000011F77
(1.743282) can0 128#1388030000EC7882
(1.752964) can0 12E#0000000000000080
(1.753126) can0 174#EC7F00002B6B07FA
(1.753288) can0 178#0E800128379507FA
(1.763207) can0 17C#0000000034870747
(1.763369) can0 290#0020000000000000
(1.763540) can0 12B#0000000000011F77
(1.763661) can0 174#E47F0000366B080E
(1.773463) can0 178#1680022037950808
(1.773633) can0 17C#000000004587083B
(1.773795) can0 290#0050000000000000
(1.773958) can0 12B#0000000000011F77
(1.774079) can0 128#1388030000EC78A2
(1.783693) can0 12E#00000000000000A0
(1.783861) can0 174#E17F0000396B09A1
(1.784022) can0 178#16800321339509E4
(1.793935) can0 17C#00000000588709BB
(1.794098) can0 290#0020000000000000
(1.794261) can0 12B#0000000000011F77
(1.794382) can0 174#DE7F00003C6B0A85
(1.804178) can0 178#168004232F950AFD
(1.804340) can0 17C#000000006F870A3E
(1.804508) can0 290#0030000000000000
(1.814421) can0 12B#0000000000011F77
(1.814548) can0 128#1388030000EC78C2
(1.814700) can0 12E#00000000000000C0
(1.814865) can0 12A#1208012000000000
(1.814987) can0 12C#0000000000000000
(1.815093) can0 5A0#00692000000000C9
(1.824678) can0 550#0000000000000060
(1.824843) can0 300#0F00000000000000
(1.824966) can0 174#E47F00003B6B0BAC
(1.825147) can0 178#1180052333950B16
(1.825321) can0 17C#0000000075870B34
(1.834907) can0 450#0000000000000000
(1.835034) can0 290#0020000000000000
(1.835181) can0 12B#0000000000012F77
(1.835343) can0 174#EF7F0000336B0CC6
(1.845150) can0 178#0B80062236950C3E
(1.845312) can0 17C#000000006F870C70
(1.845482) can0 290#0020000000000000
(1.845604) can0 12B#0000000000011F77
(1.855393) can0 128#1388030000EC7822
(1.855562) can0 12E#0000000000000020
(1.855725) can0 174#F57F00002B6B0D1E
(1.865636) can0 178#0B8007243E950D2C
(1.865798) can0 17C#0000000067870D61
(1.865960) can0 290#0020000000000000
(1.866083) can0 12B#0000000000011F77
(1.866188) can0 174#F57F00002A6B0EB6
(1.875884) can0 178#0B80082347950E48
(1.876045) can0 17C#0000000060870ECC
(1.876208) can0 290#0040000000000000
(1.876376) can0 12B#0000000000011F77
(1.876501) can0 128#1388030000EC7842
(1.886138) can0 12E#0000000000000040
(1.886300) can0 174#EF7F0000316B0FE2
(1.886462) can0 178#068009204D950F6C
(1.896365) can0 17C#000000005B870F79
(1.896536) can0 290#0020000000000000
(1.896698) can0 12B#0000000000012F78
(1.906608) can0 12A#1208012000000000
(1.906729) can0 550#0000000000000080
(1.906877) can0 174#EF7F0000386B00DA
(1.907038) can0 178#0B800A214A950098
(1.916853) can0 17C#00000000598700C1
(1.917016) can0 450#0000000000000000
(1.917138) can0 290#0040000000000000
(1.917285) can0 12B#0000000000011F77
(1.927094) can0 128#1388030000EC7862
(1.927255) can0 12E#0000000000000060
(1.927417) can0 174#F57F00003B6B019A
(1.937350) can0 178#0E800B294295014B
(1.937520) can0 17C#00000000518701D0
(1.937690) can0 290#0030000000000000
(1.937858) can0 12B#0000000000011F77
(1.937986) can0 174#FA7F00003B6B02E1
(1.947580) can0 178#0B8000003A95029E
(1.947750) can0 17C#00000000458702E9
(1.947920) can0 290#0020000000000000
(1.957823) can0 12B#0000000000011F77
(1.957958) can0 128#1388030000EC7882
(1.958118) can0 12E#0000000000000080
(1.958293) can0 174#FA7F0000396B03FF
(1.968066) can0 178#088000003695036E
(1.968234) can0 17C#0000000034870333
(1.968396) can0 290#0050000000000000
(1.978309) can0 12B#0000000000012F78
(1.978471) can0 174#FA7F0000396B04AC
(1.978637) can0 178#0E8000FF36950448
(1.988567) can0 17C#000000002E870477
(1.988729) can0 290#0030000000000000
(1.988892) can0 12B#0000000000011F77
(1.989054) can0 128#1388030000EC78A2
(1.998795) can0 12E#00000000000000A0
(1.998957) can0 12A#1208012000000000
(1.999114) can0 12C#0000000000000000
(1.999228) can0 5A0#0069200000000029
(1.999379) can0 550#00000000000000A0
(2.009037) can0 300#0F00000000000000
(2.009163) can0 174#FD7F00003C6B05B6
(2.009307) can0 178#1180000037950599
(2.009468) can0 17C#000000003487057D
(2.019280) can0 450#0000000000000000
(2.019402) can0 290#0010000000000000
(2.019557) can0 12B#0000000000011F77
(2.019678) can0 174#FA7F0000406B065D
(2.019829) can0 178#0B8001203A9506CA
(2.029525) can0 17C#0000000040870614
(2.029686) can0 290#0050000000000000
(2.029851) can0 12B#0000000000011F78
(2.039780) can0 128#1388030000EC78C2
(2.039947) can0 12E#00000000000000C0
(2.040109) can0 174#EF7F0000366B0780
(2.040270) can0 178#008002223E95077D
(2.050009) can0 17C#0000000050870711
(2.050171) can0 290#0010000000000000
(2.050333) can0 12B#0000000000012F77
(2.060252) can0 174#EC7F00002A6B08CE
(2.060413) can0 178#008003264195082C
(2.060583) can0 17C#000000006187080D
(2.070500) can0 290#0020000000000000
(2.070662) can0 12B#0000000000011F78
(2.070828) can0 128#1388030000EC7822
(2.080738) can0 12E#0000000000000020
(2.080900) can0 174#EA7F0000286B0903
(2.081062) can0 178#0680042545950955
(2.090981) can0 17C#000000006E870996
(2.091143) can0 290#0040000000000000
(2.091312) can0 12B#0000000000011F78
(2.091439) can0 12A#1208012000000000
(2.091548) can0 550#00000000000000C0
(2.101238) can0 174#EC7F00002E6B0AF2
(2.101407) can0 178#0E8005204A950A9F
(2.101585) can0 17C#0000000074870AA6
(2.101747) can0 450#0000000000000000
(2.101878) can0 290#0040000000000000
(2.101984) can0 12B#0000000000011F77
(2.111467) can0 128#1388030000EC7842
(2.111639) can0 12E#0000000000000040
(2.111808) can0 174#F57F0000336B0B44
(2.121710) can0 178#1480062147950BF5
(2.121881) can0 17C#0000000071870B32
(2.122043) can0 290#0020000000000000
(2.131953) can0 12B#0000000000012F78
(2.132115) can0 174#FA7F0000336B0C4B
(2.132276) can0 178#0B80072142950CA0
(2.142196) can0 17C#000000006E870CFF
(2.142358) can0 290#0030000000000000
(2.142529) can0 12B#0000000000011F77
(2.152452) can0 128#1388030000EC7862
(2.152619) can0 12E#0000000000000060
(2.152781) can0 174#00800000316B0D9D
(2.152943) can0 178#FA7F08203C950DE0
(2.162682) can0 17C#0000000067870D61
(2.162846) can0 290#0020000000000000
(2.163009) can0 12B#0000000000012F78
(2.172925) can0 174#FA7F0000306B0EFD
(2.173086) can0 178#F57F09253C950E22
(2.173248) can0 17C#0000000067870E46
(2.183203) can0 290#0000000000000000
(2.183378) can0 12B#0000000000011F78
(2.183548) can0 128#1388030000EC7882
(2.193411) can0 12E#0000000000000080
(2.193585) can0 12A#1208012000000000
(2.193706) can0 12C#0000000000000000
(2.193812) can0 5A0#0069200000000049
(2.193959) can0 550#0000000000000020
(2.203667) can0 300#0F00000000000000
(2.203790) can0 174#F57F0000356B0F35
(2.203935) can0 178#03800A293F950FAC
(2.204097) can0 17C#0000000067870F5B
(2.204259) can0 450#0000000000000000
(2.204382) can0 290#0020000000000000
(2.213897) can0 12B#0000000000011F77
(2.214059) can0 174#F57F00003E6B000E
(2.214221) can0 178#168000003F950072
(2.224139) can0 17C#000000006487006C
(2.224302) can0 290#0020000000000000
(2.224424) can0 12B#0000000000012F78
(2.224578) can0 128#1388030000EC78A2
(2.234382) can0 12E#00000000000000A0
(2.234553) can0 174#F57F0000466B0157
(2.234714) can0 178#1C80012039950122
(2.244625) can0 17C#000000005C870155
(2.244787) can0 290#0000000000000000
(2.244951) can0 12B#0000000000011F78
(2.254873) can0 174#F57F0000496B02F6
(2.255035) can0 178#1F80000034950247
(2.255196) can0 17C#0000000050870278
(2.255357) can0 290#0020000000000000
(2.265136) can0 12B#0000000000011F77
(2.265298) can0 128#1388030000EC78C2
(2.265459) can0 12E#00000000000000C0
(2.275354) can0 174#F57F0000476B03E2
(2.275524) can0 178#118001203495037B
(2.275693) can0 17C#00000000458703F4
(2.285598) can0 290#0020000000000000
(2.285720) can0 12B#0000000000012F78
(2.285867) can0 12A#1208012000000000
(2.285988) can0 550#0000000000000040
(2.286135) can0 174#F57F0000466B043E
(2.295845) can0 178#FD7F0221369504AA
(2.296007) can0 17C#000000003F8704E0
(2.296169) can0 450#0000000000000000
(2.296291) can0 290#0020000000000000
(2.296397) can0 12B#0000000000011F78
(2.306083) can0 128#1388030000EC7822
(2.306244) can0 12E#0000000000000020
(2.306406) can0 174#F57F0000466B0523
(2.316340) can0 178#EF7F032433950584
(2.316508) can0 17C#000000003C870571
(2.316670) can0 290#0040000000000000
(2.316834) can0 12B#0000000000012F77
(2.326570) can0 174#F57F0000446B0607
(2.326732) can0 178#EA7F042F2C950624
(2.326894) can0 17C#0000000038870650
(2.336813) can0 290#0020000000000000
(2.336976) can0 12B#0000000000011F78
(2.337138) can0 128#1388030000EC7842
(2.347055) can0 12E#0000000000000040
(2.347217) can0 174#EF7F0000436B0741
(2.347379) can0 178#F27F05122C950718
(2.357298) can0 17C#000000003F8707C7
(2.357513) can0 290#0020000000000000
(2.357648) can0 12B#0000000000012F78
(2.357828) can0 174#EF7F0000406B0876
(2.367556) can0 178#FD7F0624319508DA
(2.367725) can0 17C#00000000508708AA
(2.367887) can0 290#0040000000000000
(2.368057) can0 12B#0000000000011F77
(2.377784) can0 128#1388030000EC7862
(2.377953) can0 12E#0000000000000060
(2.378115) can0 12A#1208012000000000
(2.378244) can0 12C#0000000000000000
(2.378350) can0 5A0#0069200000000069
(2.388027) can0 550#0000000000000060
(2.388198) can0 300#0F00000000000000
(2.388320) can0 174#F57F0000396B0971
(2.388466) can0 178#088007263A95099E
(2.398270) can0 17C#000000005587093E
(2.398432) can0 450#0000000000000000
(2.398562) can0 290#0020000000000000
(2.398709) can0 12B#0000000000012F78
(2.408514) can0 174#FA7F0000366B0A8C
(2.408682) can0 178#1980082041950A80
(2.408846) can0 17C#000000004B870A08
(2.418769) can0 290#0030000000000000
(2.418932) can0 12B#0000000000011F77
(2.419094) can0 128#1388030000EC7882
(2.419255) can0 12E#0000000000000080
(2.428999) can0 174#FA7F0000356B0B1D
(2.429160) can0 178#228009253F950B86
(2.429329) can0 17C#0000000042870B96
(2.439265) can0 290#0040000000000000
(2.439436) can0 12B#0000000000012F78
(2.439606) can0 174#FA7F0000366B0CC2
(2.449492) can0 178#1680000039950CEB
(2.449654) can0 17C#0000000038870C82
(2.449817) can0 290#0030000000000000
(2.459727) can0 12B#0000000000011F77
(2.459890) can0 128#1388030000EC78A2
(2.460051) can0 12E#00000000000000A0
(2.469970) can0 174#00800000356B0D9B
(2.470140) can0 178#0680012533950DB3
(2.470302) can0 17C#000000002E870D82
(2.480227) can0 290#0010000000000000
(2.480390) can0 12B#0000000000012F78
(2.480567) can0 12A#1208012000000000
(2.480688) can0 550#0000000000000080
(2.480846) can0 174#00800000336B0EB9
(2.490456) can0 178#068002392F950ECF
(2.490624) can0 17C#0000000023870E20
(2.490786) can0 450#0000000000000000
(2.490909) can0 290#0030000000000000
(2.500699) can0 12B#0000000000011F77
(2.500869) can0 128#1388030000EC78C2
(2.501030) can0 12E#00000000000000C0
(2.510942) can0 174#FA7F0000336B0F6C
(2.511104) can0 178#0680032133950F13
(2.511265) can0 17C#0000000029870F32
(2.521185) can0 290#0030000000000000
(2.521320) can0 12B#0000000000012F78
(2.521468) can0 174#F57F00002D6B009A
(2.521644) can0 178#0B80042036950051
(2.531442) can0 17C#000000003C870018
(2.531620) can0 290#0020000000000000
(2.531790) can0 12B#0000000000011F77
(2.531988) can0 128#1388030000EC7822
(2.541671) can0 12E#0000000000000020
(2.541850) can0 174#EF7F00002B6B0153
(2.542011) can0 178#148000003F9501D5
(2.551914) can0 17C#000000004887014B
(2.552083) can0 290#0030000000000000
(2.552246) can0 12B#0000000000012F78
(2.562157) can0 174#F57F00002D6B02A0
(2.562327) can0 178#228000004495023F
(2.562496) can0 17C#000000004887026C
(2.572400) can0 290#0040000000000000
(2.572571) can0 12B#0000000000011F77
(2.572733) can0 128#1388030000EC7842
(2.582656) can0 12E#0000000000000040
(2.582820) can0 12A#1228012000000000
(2.582982) can0 12C#0000000000000000
(2.583103) can0 5A0#0069200000000089
(2.583250) can0 550#00000000000000A0
(2.592889) can0 300#0F00000000000000
(2.593011) can0 174#F87F0000316B0349
(2.593157) can0 178#2780012244950311
(2.593318) can0 17C#00000000458703F4
(2.603129) can0 450#0000000000000000
(2.603251) can0 290#0000000000000000
(2.603399) can0 12B#0000000000012F78
(2.603574) can0 174#F27F0000336B0471
(2.613372) can0 178#1C800220419504B1
(2.613541) can0 17C#000000004A870421
(2.613704) can0 290#0040000000000000
(2.623615) can0 12B#0000000000011F78
(2.623777) can0 128#1388030000EC7862
(2.623938) can0 12E#0000000000000060
(2.633862) can0 174#EF7F0000396B053C
(2.634024) can0 178#168003323A950564
(2.634185) can0 17C#00000000518705A4
(2.634346) can0 290#0020000000000000
(2.644117) can0 12B#0000000000012F77
(2.644278) can0 174#F27F00003E6B06CE
(2.644440) can0 178#1F80042037950640
(2.654343) can0 17C#0000000058870600
(2.654512) can0 290#0020000000000000
(2.654634) can0 12B#0000000000011F78
(2.654780) can0 128#1388030000EC7882
(2.664587) can0 12E#0000000000000080
(2.664749) can0 174#F87F0000406B07FA
(2.664911) can0 178#2D8005233A950764
(2.674831) can0 17C#0000000055870798
(2.674993) can0 290#0020000000000000
(2.675115) can0 178#248006323F9508DF
(2.675261) can0 17C#000000004387083E
(2.685072) can0 450#0000000000000000
(2.685195) can0 290#0020000000000000
(2.685301) can0 17C#000000003C8709ED
(2.685448) can0 290#0040000000000000
(2.685619) can0 12B#0000000000012F78
(2.695329) can0 290#0020000000000000
(2.695496) can0 12B#0000000000012F78
(2.695618) can0 128#1388030000EC78C2
(2.695763) can0 290#0010000000000000
(2.695926) can0 12B#0000000000011F78
(2.705560) can0 174#F57F0000396B0C18
(2.705721) can0 178#0E80012036950C26
(2.705883) can0 290#0030000000000000
(2.715801) can0 12B#0000000000012F77
(2.715999) can0 128#1388030000EC7822
(2.716172) can0 12E#0000000000000020
(2.726044) can0 12A#1228012000000000
(2.726169) can0 290#0030000000000000
(2.726275) can0 12B#0000000000012F78
(2.726421) can0 174#FA7F0000436B0E39
(2.726589) can0 178#1180011247950E76
(2.736287) can0 290#0040000000000000
(2.736450) can0 12B#0000000000011F78
(2.736620) can0 128#1388030000EC7842
(2.746545) can0 12E#0000000000000040
(2.746708) can0 174#FA7F0000446B0FAE
(2.746870) can0 290#0020000000000000
(2.747032) can0 12B#0000000000012F78
(2.756773) can0 174#F57F00003B6B0087
(2.756935) can0 290#0030000000000000
(2.757098) can0 12B#0000000000011F77
(2.767016) can0 128#1388030000EC7862
(2.767177) can0 12E#0000000000000060
(2.767340) can0 290#0020000000000000
(2.777259) can0 12B#0000000000012F78
(2.777421) can0 12A#1228012000000000
(2.777548) can0 290#0020000000000000
(2.777662) can0 12B#0000000000012F78
(2.777768) can0 128#1388030000EC7882
(2.777920) can0 290#0000000000000000
(2.787510) can0 12B#0000000000011F78
(2.787678) can0 174#00800000306B04E7
(2.787842) can0 290#0010000000000000
(2.797764) can0 12B#0000000000012F77
(2.797934) can0 128#1388030000EC78A2
(2.798095) can0 290#0030000000000000
(2.798266) can0 12B#0000000000012F78
(2.807989) can0 174#00800000366B06D8
(2.808159) can0 178#0680090F3C95067C
(2.808321) can0 17C#0000000026870641
(2.818231) can0 12B#0000000000011F78
(2.818393) can0 128#1388030000EC78C2
(2.818563) can0 12E#00000000000000C0
(2.828481) can0 12A#1228012000000000
(2.828602) can0 12C#0000000000000000
(2.828708) can0 5A0#00692000000000C9
(2.828865) can0 12B#0000000000012F78
(2.829028) can0 174#FA7F00003B6B0833
(2.838717) can0 178#F87F0B033F9508F1
(2.838879) can0 12E#0000000000000020
(2.839041) can0 174#F57F00003C6B09F8
(2.848960) can0 178#FA7F0C08429509B6
(2.849121) can0 174#F27F00003B6B0ADB
(2.849283) can0 178#FD7F0D2F48950AC4
(2.859216) can0 17C#0000000060870AB8
(2.859378) can0 174#EA7F0000336B0BA1
(2.859548) can0 178#00800E074A950BF4
(2.859710) can0 17C#0000000066870BA0
(2.869446) can0 550#0000000000000080
(2.869617) can0 174#E47F00002D6B0CE2
(2.869778) can0 178#08800F0D48950CA7
(2.879688) can0 17C#000000004E870CCF
(2.879853) can0 174#DE7F00002A6B0DCB
(2.880015) can0 178#0B80000244950D43
(2.889931) can0 17C#0000000035870D1A
(2.890094) can0 174#E47F0000316B0ECA
(2.890255) can0 178#0B80010839950E78
(2.900174) can0 17C#0000000029870E2F
(2.900372) can0 174#EF7F0000386B0F61
(2.900554) can0 178#1180000033950F4D
(2.910431) can0 17C#0000000024870FB7
(2.910602) can0 174#F87F0000396B0062
(2.910763) can0 178#0B8001282F950089
(2.910925) can0 17C#000000002A870005
(2.920660) can0 290#0020000000000000
(2.920833) can0 12B#0000000000012F77
(2.920995) can0 300#0F00000000000000
(2.921124) can0 174#FD7F0000396B014B
(2.930903) can0 178#0680022031950141
(2.931065) can0 17C#000000003F870189
(2.931228) can0 450#0000000000000000
(2.931350) can0 290#0000000000000000
(2.941146) can0 174#00800000396B022A
(2.941316) can0 178#008003213A9502C2
(2.941489) can0 17C#00000000538702F4
(2.951389) can0 174#00800000336B0338
(2.951567) can0 178#00800423489503B8
(2.951729) can0 17C#00000000638703C1
(2.961646) can0 290#0010000000000000
(2.961820) can0 174#FA7F0000306B042F
(2.961990) can0 178#0080052350950495
(2.962152) can0 17C#000000005E87043F
(2.971877) can0 174#F27F00002D6B057D
(2.972038) can0 178#038006224C95055E
(2.972200) can0 17C#000000004E87053A
(2.982118) can0 174#EF7F00002D6B0605
(2.982288) can0 178#0680072437950686
(2.982450) can0 17C#0000000048870618
(2.992361) can0 450#0000000000000000
(2.992491) can0 174#F27F00002B6B0742
(2.992636) can0 178#0880082329950703
(2.992798) can0 17C#000000004B870789
(3.002604) can0 174#F57F0000276B087D
(3.002771) can0 178#0B8009202F95088A
(3.002932) can0 17C#000000004D870837
(3.012851) can0 174#F57F00001D6B0947
(3.013012) can0 178#03800A213F95097E
(3.013174) can0 17C#0000000047870925
(3.013334) can0 290#0030000000000000
(3.023106) can0 12B#0000000000012F78
(3.023267) can0 174#008000001D6B0AF4
(3.023429) can0 178#F27F0B2947950A16
(3.033333) can0 17C#000000003F870A46
(3.033502) can0 290#0020000000000000
(3.033665) can0 12B#0000000000012F77
(3.043579) can0 300#0F00000000000000
(3.043701) can0 174#068000002E6B0B9E
(3.043849) can0 178#E17F000042950B5E
(3.044010) can0 174#03800000416B0C2F
(3.053823) can0 178#DC7F000039950CF5
(3.053984) can0 17C#0000000056870CDB
(3.054146) can0 290#0010000000000000
(3.064062) can0 174#FD7F00004C6B0D16
(3.064223) can0 178#EF7F00FF34950DFA
(3.064384) can0 17C#0000000061870D64
(3.074318) can0 174#EF7F00004C6B0E32
(3.074487) can0 178#0080000039950EBB
(3.074649) can0 17C#0000000051870E6B
(3.074811) can0 174#EC7F0000476B0F48
(3.084549) can0 178#0680012041950F11
(3.084718) can0 17C#000000003A870FA6
(3.084892) can0 174#EC7F0000446B007F
(3.094826) can0 178#06800222429500BF
(3.095000) can0 17C#0000000037870098
(3.095161) can0 450#0000000000000000
(3.095284) can0 174#F27F0000436B0150
(3.105033) can0 178#0B8003263F9501AD
(3.105199) can0 17C#000000004887014B
(3.105361) can0 540#02000000100000ED
(3.115276) can0 178#1C8004253C950280
(3.115446) can0 17C#000000005C870272
(3.115616) can0 541#0280000000000000
(3.125534) can0 290#0010000000000000
(3.125664) can0 12B#0000000000012F78
(3.125811) can0 17C#000000005E87036C
(3.125973) can0 290#0020000000000000
(3.126136) can0 12B#0000000000012F77
(3.135762) can0 174#F57F0000306B0473
(3.135924) can0 290#0020000000000000
(3.136046) can0 12B#0000000000012F77
(3.136151) can0 128#1388030000EC7862
(3.136296) can0 12E#0000000000000060
(3.146005) can0 450#0000000000000000
(3.146128) can0 290#0010000000000000
(3.146275) can0 12B#0000000000012F77
(3.146396) can0 290#0000000000000000
(3.146551) can0 12B#0000000000011F78
(3.156248) can0 128#1388030000EC7882
(3.156409) can0 12E#0000000000000080
(3.156578) can0 290#0000000000000000
(3.156705) can0 12B#0000000000012F77
(3.166499) can0 174#F87F0000306B0809
(3.166660) can0 290#0010000000000000
(3.166828) can0 12B#0000000000012F77
(3.166949) can0 128#1388030000EC78A2
(3.176748) can0 290#0030000000000000
(3.176911) can0 12B#0000000000012F77
(3.177032) can0 12A#1228012000000000
(3.177137) can0 290#0030000000000000
(3.177243) can0 12B#0000000000012F78
(3.177389) can0 128#1388030000EC78C2
(3.177558) can0 540#02000000100000EE
(3.186977) can0 290#0010000000000000
(3.187140) can0 12B#0000000000012F77
(3.187302) can0 541#0280000000000000
(3.187424) can0 120#0000000000000000
(3.197220) can0 121#0000000000000000
(3.197400) can0 129#0000000000000000
(3.197587) can0 12B#0000000000012F77
(3.197724) can0 290#0030000000000000
(3.207463) can0 12B#0000000000012F77
(3.207592) can0 174#FA7F0000466B0EB0
(3.207746) can0 178#148003243F950ED4
(3.207915) can0 120#0000000000000020
(3.217711) can0 121#0000000000000020
(3.217874) can0 129#0000000000000020
(3.218043) can0 290#0030000000000000
(3.218173) can0 12B#0000000000012F77
(3.218283) can0 174#EC7F0000436B00F5
(3.227954) can0 129#0000000000000040
(3.228117) can0 12B#0000000000012F77
(3.228245) can0 290#0000000000000000
(3.228392) can0 128#1388030000EC7862
(3.238211) can0 290#0040000000000000
(3.238374) can0 12B#0000000000012F77
(3.238501) can0 174#EC7F00002D6B0296
(3.242654) can0 178#0B8007264F950277
(3.243019) can0 290#0010000000000000
(3.248435) can0 128#1388030000EC7882
(3.248604) can0 12E#0000000000000080
(3.248726) can0 12A#1228012000000000
(3.248832) can0 550#10000000000000D0
(3.248979) can0 174#F27F0000336B0471
(3.258678) can0 12E#00000000000000A0
(3.258843) can0 174#EA7F0000416B054C
(3.259004) can0 178#0B800000369505C7
(3.268921) can0 174#E47F0000436B0669
(3.269083) can0 178#0B80012536950613
(3.269245) can0 17C#0000000026870641
(3.279164) can0 174#E17F0000396B0707
(3.279326) can0 178#168002393995079E
(3.279496) can0 17C#000000004287070A
(3.289420) can0 290#0030000000000000
(3.289591) can0 12B#0000000000012F77
(3.289712) can0 174#EA7F0000366B080F
(3.289863) can0 178#27800321449508B0
(3.290031) can0 17C#000000004E8708BB
(3.299650) can0 120#00000000000000C0
(3.299812) can0 550#1000000000000030
(3.299975) can0 300#0F00000000000000
(3.300098) can0 174#EF7F0000356B09AA
(3.309895) can0 178#2A8004204A9509D4
(3.310057) can0 174#EF7F0000386B0A08
(3.310219) can0 178#1980000048950A3E
(3.320135) can0 17C#0000000045870A01
(3.320298) can0 174#EA7F00003C6B0B27
(3.320460) can0 178#0380000041950B71
(3.330378) can0 17C#000000003A870BD2
(3.330549) can0 174#EA7F00003B6B0CFE
(3.330710) can0 178#F87F01223F950CF1
(3.340635) can0 17C#0000000037870C04
(3.340806) can0 120#0000000000000040
(3.340975) can0 174#EF7F0000386B0D5B
(3.341137) can0 178#FD7F02203C950DCD
(3.350866) can0 17C#000000003D870D16
(3.351029) can0 174#F57F0000366B0EA4
(3.351191) can0 178#0680033236950E18
(3.361107) can0 17C#0000000043870E70
(3.361278) can0 450#0000000000000000
(3.361401) can0 174#F27F0000366B0F37
(3.361561) can0 178#1480042031950F85
(3.371350) can0 17C#0000000047870F6B
(3.371527) can0 174#EF7F0000366B00D3
(3.371689) can0 178#1980052334950081
(3.381593) can0 17C#0000000042870059
(3.381762) can0 541#0280000000000000
(3.381885) can0 174#EF7F0000366B01CE
(3.382039) can0 178#16800632369501C5
(3.391842) can0 17C#000000004887014B
(3.392004) can0 290#0020000000000000
(3.392167) can0 12B#0000000000012F77
(3.392289) can0 174#EF7F0000366B02E9
(3.392433) can0 178#1180072137950216
(3.402095) can0 17C#000000004D8702E5
(3.402266) can0 120#00000000000000A0
(3.402434) can0 121#00000000000000A0
(3.412322) can0 300#0F00000000000000
(3.412445) can0 174#EF7F0000366B03F4
(3.412599) can0 178#0E800827379503FB
(3.412761) can0 174#EF7F0000366B04A7
(3.422668) can0 178#0E800000349504ED
(3.422849) can0 17C#000000003D8704E3
(3.423011) can0 174#EA7F0000366B058E
(3.432808) can0 178#118001202C950521
(3.432974) can0 17C#000000003A870574
(3.433137) can0 290#0000000000000000
(3.443051) can0 12B#0000000000012F77
(3.443173) can0 174#EF7F0000396B061B
(3.443319) can0 178#068000002695061E
(3.443489) can0 17C#0000000038870650
(3.453307) can0 174#EF7F00003E6B078C
(3.453482) can0 178#F57F0112299507AA
(3.453650) can0 17C#00000000378707CB
(3.453844) can0 290#0050000000000000
(3.463538) can0 174#EA7F0000416B08CD
(3.463700) can0 178#F87F020F31950837
(3.463865) can0 17C#000000003C8708F0
(3.473780) can0 174#EA7F0000466B095A
(3.473942) can0 178#1180030239950995
(3.474104) can0 17C#0000000043870923
(3.484023) can0 174#EF7F0000466B0A49
(3.484185) can0 178#2780040539950A48
(3.484347) can0 17C#000000004E870A81
(3.494275) can0 541#0280000000000000
(3.494397) can0 120#0000000000000060
(3.494551) can0 121#0000000000000060
(3.494714) can0 174#EA7F0000436B0BE9
(3.504524) can0 178#2780051233950BE1
(3.504685) can0 17C#0000000055870B04
(3.504851) can0 178#1C8006142C950C18
(3.505013) can0 17C#0000000053870C52
(3.514752) can0 120#0000000000000080
(3.514914) can0 121#0000000000000080
(3.515076) can0 17C#000000004D870D5E
(3.524995) can0 450#0000000000000000
(3.525117) can0 290#0020000000000000
(3.525265) can0 120#00000000000000A0
(3.525427) can0 121#00000000000000A0
(3.535237) can0 129#00000000000000A0
(3.535400) can0 290#0030000000000000
(3.535571) can0 12B#0000000000013F77
(3.545488) can0 174#EA7F0000436B0026
(3.545657) can0 178#EA7F0A133F950055
(3.545821) can0 17C#00000000478700D0
(3.555737) can0 120#00000000000000C0
(3.555899) can0 121#00000000000000C0
(3.556061) can0 129#00000000000000C0
(3.556224) can0 290#0040000000000000
(3.565966) can0 12B#0000000000013F77
(3.566088) can0 12A#1228012000000000
(3.566193) can0 120#0000000000000020
(3.566339) can0 121#0000000000000020
(3.566508) can0 129#0000000000000020
(3.576209) can0 12B#0000000000012F77
(3.576372) can0 540#02000000100000EF
(3.576547) can0 290#0040000000000000
(3.576669) can0 12B#0000000000013F77
(3.586452) can0 541#0280000000000000
(3.586581) can0 120#0000000000000040
(3.586727) can0 121#0000000000000040
(3.586889) can0 290#0000000000000000
(3.596695) can0 12B#0000000000013F77
(3.596817) can0 174#EF7F0000236B060C
(3.596963) can0 120#0000000000000060
(3.597161) can0 121#0000000000000060
(3.606938) can0 129#0000000000000060
(3.607104) can0 290#0010000000000000
(3.607268) can0 12B#0000000000013F77
(3.607396) can0 174#EF7F0000276B08AC
(3.617195) can0 178#F57F000039950861
(3.617364) can0 120#0000000000000080
(3.617534) can0 121#0000000000000080
(3.617704) can0 129#0000000000000080
(3.627424) can0 12B#0000000000012F77
(3.627594) can0 290#0010000000000000
(3.627725) can0 12B#0000000000013F77
(3.627872) can0 174#EF7F00002E6B0A15
(3.637673) can0 178#FA7F022037950A90
(3.637836) can0 129#00000000000000A0
(3.638005) can0 12B#0000000000012F77
(3.647917) can0 290#0010000000000000
(3.648040) can0 290#0000000000000000
(3.648196) can0 12B#0000000000013F77
(3.648358) can0 12A#1228012000000000
(3.648487) can0 290#0020000000000000
(3.658159) can0 128#1388030000EC7822
(3.658320) can0 12E#0000000000000020
(3.658491) can0 174#F57F0000366B0D83
(3.668409) can0 174#FD7F0000396B0EF0
(3.668579) can0 178#2280062242950EAA
(3.668741) can0 17C#0000000029870E2F
(3.668904) can0 12E#0000000000000040
(3.678639) can0 174#038000003C6B0FC5
(3.678801) can0 178#1C80072442950F63
(3.678963) can0 174#00800000416B0054
(3.688884) can0 178#1480082344950087
(3.689045) can0 17C#000000003587009B
(3.689208) can0 120#0000000000000040
(3.699125) can0 12C#0000000000000000
(3.699247) can0 5A0#0069200000000069
(3.699394) can0 550#1000000000000070
(3.699566) can0 174#F27F00004A6B02F4
(3.709368) can0 178#FD7F0A21449502D8
(3.709538) can0 17C#000000003D8702AD
(3.709701) can0 120#0000000000000060
(3.719624) can0 174#EF7F0000406B03B9
(3.719786) can0 178#FA7F0B29429503B8
(3.719948) can0 17C#000000004287037E
(3.720111) can0 174#EF7F00002D6B043F
(3.729856) can0 178#008000003F95046C
(3.730018) can0 17C#000000004B8704AE
(3.730181) can0 174#EF7F00001F6B0509
(3.740097) can0 178#0E8000003F950570
(3.740259) can0 17C#00000000538705A7
(3.740421) can0 290#0040000000000000
(3.750339) can0 174#EF7F00001F6B062E
(3.750508) can0 178#198000FF4295060B
(3.750670) can0 17C#0000000058870600
(3.760582) can0 174#EA7F0000276B0723
(3.760752) can0 178#1C80000042950784
(3.760922) can0 17C#000000005C87071B
(3.770829) can0 174#E47F0000316B0884
(3.770991) can0 178#038001203A9508BE
(3.771154) can0 17C#00000000568708AF
(3.771315) can0 541#0280000000000000
(3.771437) can0 174#EA7F0000406B095F
(3.781085) can0 178#EA7F02223395092F
(3.781255) can0 17C#000000004B87092F
(3.781464) can0 174#F57F0000466B0A98
(3.791311) can0 178#E47F032634950AA7
(3.791490) can0 17C#0000000042870A8B
(3.791652) can0 120#0000000000000020
(3.801556) can0 300#0F00000000000000
(3.801686) can0 174#F57F0000416B0B0F
(3.801833) can0 178#EC7F042539950B5C
(3.802002) can0 174#F57F00003B6B0C1B
(3.811797) can0 178#F87F05203F950C63
(3.811967) can0 17C#0000000032870C8D
(3.812130) can0 174#EF7F00003B6B0DD7
(3.822040) can0 178#0080062141950D6E
(3.822211) can0 17C#000000002F870D0D
(3.822374) can0 290#0040000000000000
(3.822501) can0 12B#0000000000013F77
(3.822607) can0 174#EF7F0000406B0E38
(3.832297) can0 178#068007213F950EB1
(3.832459) can0 17C#0000000040870EFC
(3.832629) can0 120#0000000000000060
(3.832791) can0 121#0000000000000060
(3.842527) can0 174#F57F0000396B0F3F
(3.842689) can0 178#068008203F950F4D
(3.842854) can0 17C#0000000048870FED
(3.852769) can0 290#0030000000000000
(3.852932) can0 12B#0000000000013F77
(3.853054) can0 174#F57F00002D6B009A
(3.853207) can0 178#0680092542950082
(3.863012) can0 17C#000000002C870000
(3.863175) can0 450#0000000000000000
(3.863298) can0 174#F57F0000276B0188
(3.863444) can0 178#06800A293F95013E
(3.873255) can0 17C#00000000138701B3
(3.873418) can0 540#02000000100000EF
(3.873546) can0 174#F57F0000286B0229
(3.873692) can0 178#038000003C950249
(3.883519) can0 17C#0000000010870218
(3.883682) can0 541#0280000000000000
(3.883804) can0 120#00000000000000A0
(3.883951) can0 121#00000000000000A0
(3.884113) can0 129#00000000000000A0
(3.884234) can0 174#F27F0000286B03BA
(3.893741) can0 178#0B8001203995032F
(3.893903) can0 17C#000000001F870383
(3.894066) can0 290#0040000000000000
(3.903984) can0 174#EF7F0000256B0433
(3.904146) can0 178#1C800000369504ED
(3.904308) can0 17C#0000000032870465
(3.914227) can0 120#00000000000000C0
(3.914389) can0 174#EF7F0000236B052B
(3.914559) can0 178#2A800120349505D6
(3.924470) can0 17C#000000003D8705FE
(3.924638) can0 450#0000000000000000
(3.924761) can0 178#2A80022133950658
(3.924907) can0 17C#0000000042870617
(3.934726) can0 120#0000000000000020
(3.934889) can0 121#0000000000000020
(3.935051) can0 129#0000000000000020
(3.935213) can0 17C#0000000045870780
(3.944956) can0 290#0000000000000000
(3.945119) can0 12B#0000000000013F77
(3.945241) can0 174#00800000306B087B
(3.945387) can0 120#0000000000000040
(3.955199) can0 121#0000000000000040
(3.955361) can0 129#0000000000000040
(3.955567) can0 174#FD7F0000366B0925
(3.965442) can0 178#D67F0512369509AF
(3.965616) can0 290#0020000000000000
(3.965779) can0 12B#0000000000013F77
(3.965900) can0 12A#1228012000000000
(3.966006) can0 550#1000000000000050
(3.975684) can0 174#F57F0000366B0AD0
(3.975849) can0 120#0000000000000060
(3.976011) can0 121#0000000000000060
(3.985927) can0 129#0000000000000060
(3.986090) can0 540#02000000100000EF
(3.986212) can0 290#0040000000000000
(3.986360) can0 12B#0000000000013F77
(3.986489) can0 541#0280000000000000
(3.986596) can0 120#0000000000000080
(3.996184) can0 121#0000000000000080
(3.996346) can0 290#0010000000000000
(3.996518) can0 12B#0000000000013F77
(3.996644) can0 174#EF7F0000366B0E75
(3.996792) can0 178#0880000041950E2D
(4.006413) can0 17C#0000000037870E3E
(4.006581) can0 120#00000000000000A0
(4.006742) can0 121#00000000000000A0
(4.016656) can0 129#00000000000000A0
(4.016819) can0 12B#0000000000013F77
(4.016940) can0 290#0010000000000000
(4.017046) can0 12B#0000000000013F77
(4.017151) can0 174#F87F00002D6B007C
(4.017297) can0 120#00000000000000C0
(4.026900) can0 121#00000000000000C0
(4.027062) can0 129#00000000000000C0
(4.027224) can0 290#0030000000000000
(4.037142) can0 12B#0000000000013F77
(4.037263) can0 174#EC7F00002B6B0293
(4.037409) can0 120#0000000000000020
(4.037578) can0 121#0000000000000020
(4.047399) can0 129#0000000000000020
(4.047568) can0 12B#0000000000013F77
(4.047698) can0 290#0000000000000000
(4.047848) can0 12B#0000000000013F77
(4.047975) can0 12A#1228012000000000
(4.048080) can0 129#0000000000000040
(4.048233) can0 12B#0000000000012F77
(4.057628) can0 290#0010000000000000
(4.057799) can0 128#1388030000EC7862
(4.057967) can0 290#0020000000000000
(4.067873) can0 12B#0000000000013F77
(4.068042) can0 174#F57F0000396B06CA
(4.068211) can0 290#0000000000000000
(4.078114) can0 128#1388030000EC7882
(4.078283) can0 12E#0000000000000080
(4.078445) can0 174#F57F0000396B07D7
(4.088357) can0 174#F57F0000366B08EA
(4.088527) can0 178#228004203F9508DA
(4.088688) can0 17C#000000005C8708A0
(4.098613) can0 120#0000000000000080
(4.098775) can0 121#0000000000000080
(4.098937) can0 12E#00000000000000A0
(4.099099) can0 12A#1228012000000000
(4.099220) can0 12C#0000000000000000
(4.099326) can0 174#F57F0000366B0AD0
(4.108845) can0 178#2780063245950A45
(4.109007) can0 17C#0000000038870ACC
(4.109170) can0 120#00000000000000A0
(4.119122) can0 174#F57F0000316B0B47
(4.119296) can0 178#118007214C950B2B
(4.119457) can0 17C#0000000032870BDE
(4.129329) can0 174#F27F0000306B0C15
(4.129502) can0 178#038008274C950C6E
(4.129664) can0 17C#000000003C870C84
(4.139573) can0 174#EF7F00002A6B0D40
(4.139735) can0 178#008000004D950DD2
(4.139897) can0 17C#000000004D870D5E
(4.149823) can0 290#0020000000000000
(4.149993) can0 550#10000000000000D0
(4.150156) can0 174#EA7F0000206B0E5C
(4.150317) can0 178#0080012048950E5C
(4.160074) can0 17C#0000000061870E43
(4.160236) can0 174#EA7F00001D6B0FEC
(4.160398) can0 178#0680000041950F31
(4.170301) can0 17C#0000000066870FD4
(4.170463) can0 174#EF7F0000236B0042
(4.170633) can0 178#118001123C950018
(4.180550) can0 17C#00000000518700CD
(4.180713) can0 174#EF7F00002D6B0156
(4.180881) can0 178#1180020F39950158
(4.190786) can0 17C#000000003287010C
(4.190949) can0 174#FA7F0000356B02E8
(4.191111) can0 178#0B8003023C950202
(4.201035) can0 17C#00000000238702BC
(4.201197) can0 120#0000000000000060
(4.201367) can0 300#0F00000000000000
(4.201506) can0 174#FD7F0000366B03F7
(4.211286) can0 178#0B8004053F95036C
(4.211449) can0 17C#00000000298703AE
(4.211623) can0 174#FA7F0000366B042A
(4.211785) can0 178#1480051245950426
(4.221522) can0 17C#00000000318704E9
(4.221685) can0 174#F87F0000386B0584
(4.221861) can0 178#1C800614429505B4
(4.231764) can0 17C#0000000038870577
(4.231926) can0 290#0030000000000000
(4.232096) can0 174#F57F0000366B064C
(4.242007) can0 178#1680072F3C950699
(4.242168) can0 17C#0000000048870618
(4.242337) can0 174#EF7F0000306B0785
(4.252244) can0 178#0B800802349507AE
(4.252407) can0 17C#000000005387079D
(4.252577) can0 174#EA7F0000336B0886
(4.262509) can0 178#0080090F2F95089D
(4.262671) can0 17C#000000004E8708BB
(4.262834) can0 450#0000000000000000
(4.262957) can0 174#E77F0000396B0972
(4.263103) can0 178#FD7F0A133195099E
(4.272730) can0 17C#000000003D870962
(4.272893) can0 540#02000000100000F0
(4.273056) can0 290#0020000000000000
(4.282973) can0 174#EA7F0000406B0A78
(4.283135) can0 178#F87F0B0334950A4B
(4.283297) can0 17C#0000000029870A5B
(4.293216) can0 541#0280000000000000
(4.293339) can0 174#F57F0000446B0B86
(4.293491) can0 178#FD7F0C083E950B40
(4.293653) can0 17C#0000000026870BC0
(4.303459) can0 290#0000000000000000
(4.303635) can0 174#F57F0000446B0CD5
(4.303797) can0 178#03800D2F4A950C28
(4.313715) can0 17C#0000000035870C07
(4.313914) can0 120#0000000000000040
(4.314088) can0 300#0F00000000000000
(4.314216) can0 174#F57F00003B6B0D06
(4.314364) can0 178#0E800E074C950DBE
(4.323945) can0 17C#0000000045870D52
(4.324111) can0 174#F57F0000306B0EA1
(4.324273) can0 178#19800F0D3E950E34
(4.334188) can0 17C#0000000045870E75
(4.334350) can0 120#0000000000000060
(4.334521) can0 174#F57F00002D6B0F21
(4.344431) can0 178#248000022F950F9A
(4.344598) can0 17C#0000000037870F23
(4.344760) can0 290#0010000000000000
(4.354674) can0 178#2A800108299500F4
(4.354837) can0 17C#0000000032870011
(4.355000) can0 120#0000000000000080
(4.364917) can0 17C#000000003C870105
(4.365079) can0 290#0020000000000000
(4.365243) can0 12B#0000000000013F77
(4.365364) can0 12A#1228012000000000
(4.365469) can0 550#1000000000000090
(4.375173) can0 450#0000000000000000
(4.375296) can0 120#00000000000000A0
(4.375442) can0 121#00000000000000A0
(4.375609) can0 540#02000000100000F0
(4.375732) can0 290#0020000000000000
(4.375839) can0 12B#0000000000013F77
(4.375944) can0 174#F27F0000316B0472
(4.376090) can0 541#0280000000000000
(4.376213) can0 120#00000000000000C0
(4.385403) can0 121#00000000000000C0
(4.385573) can0 290#0010000000000000
(4.385736) can0 12B#0000000000013F77
(4.385858) can0 174#EF7F00003B6B0618
(4.395646) can0 120#0000000000000020
(4.395808) can0 121#0000000000000020
(4.395970) can0 129#0000000000000020
(4.405891) can0 12B#0000000000013F77
(4.406013) can0 290#0020000000000000
(4.406160) can0 12B#0000000000013F77
(4.406282) can0 174#F27F0000416B08A6
(4.406428) can0 120#0000000000000040
(4.416131) can0 121#0000000000000040
(4.416294) can0 129#0000000000000040
(4.416456) can0 12B#0000000000013F77
(4.416584) can0 290#0010000000000000
(4.426388) can0 12B#0000000000013F77
(4.426518) can0 174#EF7F0000406B0A4C
(4.426664) can0 120#0000000000000060
(4.426831) can0 121#0000000000000060
(4.426993) can0 129#0000000000000060
(4.436617) can0 290#0020000000000000
(4.436781) can0 12B#0000000000013F77
(4.436902) can0 12A#1228012000000000
(4.437007) can0 120#0000000000000080
(4.437154) can0 121#0000000000000080
(4.446862) can0 129#0000000000000080
(4.447024) can0 290#0010000000000000
(4.447194) can0 12B#0000000000013F77
(4.447316) can0 174#F57F0000286B0EB5
(4.457103) can0 178#FD7F000033950EF2
(4.457265) can0 17C#0000000031870E3B
(4.457428) can0 129#00000000000000A0
(4.467346) can0 12B#0000000000013F77
(4.467518) can0 290#0010000000000000
(4.467632) can0 290#0000000000000000
(4.467808) can0 12B#0000000000013F77
(4.467937) can0 174#FA7F0000316B00D4
(4.468084) can0 290#0020000000000000
(4.477603) can0 128#1388030000EC7822
(4.477772) can0 12E#0000000000000020
(4.477943) can0 12A#1228012000000000
(4.478064) can0 12B#0000000000013F77
(4.478178) can0 174#F57F0000406B0275
(4.478324) can0 178#E47F0222399502EE
(4.487834) can0 12E#0000000000000040
(4.488004) can0 174#F57F0000436B03E4
(4.488174) can0 178#FA7F0326369503E9
(4.498075) can0 17C#0000000056870360
(4.498244) can0 290#0010000000000000
(4.498408) can0 174#FA7F00003E6B0426
(4.508318) can0 178#0E8004253C9504CD
(4.508488) can0 17C#000000005E87043F
(4.508659) can0 120#0000000000000040
(4.518562) can0 174#FA7F00003B6B05B2
(4.518724) can0 178#1F80052047950545
(4.518893) can0 17C#0000000064870505
(4.528814) can0 550#1000000000000050
(4.528980) can0 174#FA7F0000406B065D
(4.529142) can0 178#2780062145950646
(4.529312) can0 17C#000000006C87062E
(4.539063) can0 174#FA7F0000406B0740
(4.539225) can0 178#27800721369507F5
(4.539387) can0 17C#00000000778707AB
(4.549290) can0 540#02000000100000F0
(4.549412) can0 174#F57F00003C6B08E5
(4.549567) can0 178#1C8008202B9508D1
(4.549728) can0 17C#000000007A870895
(4.559534) can0 541#0280000000000000
(4.559657) can0 174#EF7F0000386B092F
(4.559803) can0 178#1C800925269509F0
(4.559965) can0 17C#000000006C870995
(4.569776) can0 290#0030000000000000
(4.569939) can0 12B#0000000000013F77
(4.570067) can0 174#EA7F0000316B0ABF
(4.570213) can0 178#22800A2929950AEA
(4.580019) can0 17C#0000000058870A9C
(4.580181) can0 120#00000000000000A0
(4.580343) can0 300#0F00000000000000
(4.580466) can0 174#E47F00002E6B0B3D
(4.590275) can0 178#228000002C950B96
(4.590438) can0 174#EA7F0000306B0C7E
(4.590608) can0 178#1C8001202B950CB8
(4.590770) can0 17C#0000000035870C07
(4.600512) can0 174#F27F0000366B0D0D
(4.600682) can0 178#0E8000002E950D0F
(4.600848) can0 17C#0000000029870D08
(4.610748) can0 290#0030000000000000
(4.610870) can0 174#F27F0000356B0EA6
(4.611023) can0 178#0680012036950ECE
(4.611185) can0 17C#0000000026870EA9
(4.620996) can0 120#0000000000000020
(4.621158) can0 174#EC7F00002B6B0F12
(4.621327) can0 178#0880022142950FBF
(4.631233) can0 17C#000000002F870F37
(4.631396) can0 290#0010000000000000
(4.631573) can0 174#EA7F0000206B00FA
(4.641500) can0 178#118003244C950082
(4.641708) can0 17C#000000003C870018
(4.641887) can0 174#EA7F00001F6B0149
(4.642060) can0 178#2280042F4D95010C
(4.651726) can0 17C#000000004887014B
(4.651890) can0 540#02000000100000F0
(4.652019) can0 290#0010000000000000
(4.652125) can0 174#E77F00002A6B0229
(4.652271) can0 178#2D80051247950232
(4.661968) can0 17C#00000000458702E9
(4.662130) can0 174#E77F0000356B03AA
(4.662299) can0 178#27800624419503FA
(4.672205) can0 17C#00000000358703BC
(4.672368) can0 290#0020000000000000
(4.672540) can0 12B#0000000000013F77
(4.672661) can0 174#EA7F00003C6B049C
(4.682448) can0 178#168007264195046F
(4.682616) can0 17C#00000000298704FD
(4.682778) can0 120#0000001000000090
(4.692705) can0 121#0000000000000080
(4.692835) can0 129#0000000000000080
(4.692984) can0 300#0F00000000000000
(4.693107) can0 174#EF7F0000436B057B
(4.693253) can0 178#FA7F0820419505C5
(4.693415) can0 174#EF7F0000436B065C
(4.702939) can0 178#DE7F09254195065D
(4.703101) can0 17C#00000000378706D6
(4.703264) can0 120#00000010000000B0
(4.713177) can0 121#00000000000000A0
(4.713339) can0 129#00000000000000A0
(4.713508) can0 174#F27F0000406B0792
(4.723420) can0 178#DE7F00003F950785
(4.723590) can0 17C#000000003887074D
(4.723752) can0 174#F57F0000366B08EA
(4.733663) can0 178#F57F01253C95081B
(4.733828) can0 17C#00000000428708B1
(4.733991) can0 120#00000010000000D0
(4.743906) can0 174#F57F00002A6B09E5
(4.744068) can0 178#0B8002393A9509EB
(4.744230) can0 17C#000000005387093B
(4.754162) can0 290#0020000000000000
(4.754285) can0 12B#0000000000013F77
(4.754391) can0 12A#1228012000000000
(4.754501) can0 550#10000000000000D0
(4.754649) can0 174#FA7F0000226B0A92
(4.754812) can0 178#168003213F950AC9
(4.754973) can0 17C#0000000059870A13
(4.764392) can0 178#0E80042044950BE1
(4.764569) can0 17C#0000000058870B81
(4.764732) can0 540#02000000100000F0
(4.764855) can0 17C#0000000055870C57
(4.774635) can0 541#0280000000000000
(4.774758) can0 120#0000001000000050
(4.774904) can0 290#0020000000000000
(4.775026) can0 12B#0000000000013F77
(4.775132) can0 174#EC7F0000306B0E97
(4.775278) can0 120#0000001000000070
(4.784880) can0 121#0000000000000060
(4.785042) can0 129#0000000000000060
(4.785204) can0 12B#0000000000013F77
(4.785326) can0 290#0010000000000000
(4.795121) can0 128#1388030000EC7882
(4.795282) can0 290#0040000000000000
(4.795445) can0 12B#0000000000013F77
(4.795575) can0 174#F57F0000256B0096
(4.805413) can0 120#0000001000000090
(4.805595) can0 121#0000000000000080
(4.805757) can0 129#0000000000000080
(4.805920) can0 290#0030000000000000
(4.815607) can0 12B#0000000000013F77
(4.815732) can0 174#EF7F0000406B02A4
(4.815879) can0 120#00000010000000B0
(4.816040) can0 121#00000000000000A0
(4.825852) can0 129#00000000000000A0
(4.826014) can0 290#0020000000000000
(4.826177) can0 12B#0000000000013F77
(4.826303) can0 12A#1228012000000000
(4.826416) can0 550#1000000000000050
(4.836093) can0 120#00000010000000D0
(4.836254) can0 121#00000000000000C0
(4.836416) can0 129#00000000000000C0
(4.846335) can0 290#0020000000000000
(4.846458) can0 12B#0000000000013F77
(4.846572) can0 174#EF7F00002A6B068F
(4.846718) can0 120#0000001000000030
(4.846880) can0 121#0000000000000020
(4.856592) can0 129#0000000000000020
(4.856755) can0 290#0030000000000000
(4.856918) can0 12B#0000000000013F77
(4.857040) can0 174#EA7F0000306B080A
(4.857186) can0 129#0000000000000040
(4.866822) can0 12B#0000000000013F77
(4.866944) can0 290#0020000000000000
(4.867092) can0 128#1388030000EC7862
(4.867253) can0 290#0040000000000000
(4.877064) can0 12B#0000000000013F77
(4.877186) can0 174#EA7F0000366B0A35
(4.877332) can0 178#1C80020F41950A35
(4.877502) can0 290#0020000000000000
(4.887307) can0 128#1388030000EC7882
(4.887469) can0 12E#0000000000000080
(4.887638) can0 174#EC7F0000386B0CA1
(4.897552) can0 178#1180040534950C86
(4.897722) can0 17C#0000000051870C51
(4.897891) can0 12E#00000000000000A0
(4.907796) can0 174#F57F00003B6B0D06
(4.907973) can0 178#1180051236950D23
(4.908142) can0 550#1000000000000090
(4.908304) can0 174#FA7F0000396B0E7E
(4.918052) can0 178#168006143A950E57
(4.918222) can0 174#FD7F0000336B0FE2
(4.918384) can0 178#1980072F3E950F33
(4.928279) can0 17C#000000002F870F37
(4.928442) can0 540#02000000100000F0
(4.928570) can0 290#0020000000000000
(4.928676) can0 174#F57F00002D6B009A
(4.928828) can0 178#1680080245950065
(4.938523) can0 17C#000000003187009D
(4.938686) can0 174#EF7F00002D6B0156
(4.938851) can0 178#0E80090F4D95013A
(4.948765) can0 17C#0000000038870103
(4.948928) can0 174#EA7F0000386B02D4
(4.949090) can0 178#06800A134F950285
(4.959008) can0 17C#0000000042870263
(4.959171) can0 120#0000001000000030
(4.959292) can0 550#10000000000000B0
(4.959439) can0 300#0F00000000000000
(4.959570) can0 174#EC7F0000406B035E
(4.969264) can0 174#EF7F0000446B04EC
(4.969462) can0 178#0B800C0855950458
(4.969641) can0 17C#000000003887046A
(4.969804) can0 120#0000001000000050
(4.979500) can0 121#0000000000000040
(4.979666) can0 174#EF7F0000406B05F7
(4.979836) can0 178#00800D2F559505A4
(4.989737) can0 17C#0000000026870566
(4.989900) can0 174#EF7F00003B6B0618
(4.990062) can0 178#FA7F0E07509506AA
(4.999980) can0 17C#000000001F8706EA
(5.000142) can0 174#EF7F00003C6B078F
(5.000302) can0 178#FD7F0F0D45950779
(5.010223) can0 17C#00000000298707DA
(5.010385) can0 174#EF7F0000396B08BD
(5.010554) can0 178#FD7F000239950894
(5.020487) can0 17C#000000004587083B
(5.020657) can0 174#FA7F0000336B0922
(5.020819) can0 178#FD7F0108349509DD
(5.020989) can0 17C#000000005E8709BE
(5.030709) can0 540#02000000100000F0
(5.030831) can0 290#0000000000000000
(5.030979) can0 174#008000002B6B0AD9
(5.031140) can0 178#F87F000033950AB2
(5.040957) can0 17C#0000000064870ABE
(5.041119) can0 541#0280000000000000
(5.041248) can0 120#00000010000000B0
(5.041402) can0 121#00000000000000A0
(5.051195) can0 129#00000000000000A0
(5.051357) can0 12B#0000000000013F77
(5.051493) can0 290#0020000000000000
(5.051640) can0 174#FA7F0000236B0B00
(5.061443) can0 178#FD7F012834950BAD
(5.061609) can0 17C#0000000066870BA0
(5.061784) can0 290#0010000000000000
(5.071694) can0 174#F87F0000226B0C66
(5.071865) can0 178#038002203E950C72
(5.072027) can0 17C#0000000067870C7C
(5.072189) can0 300#0F00000000000000
(5.072311) can0 174#F57F0000276B0D14
(5.081923) can0 178#1180032147950D50
(5.082091) can0 17C#0000000064870DED
(5.082260) can0 450#0000000000000000
(5.082383) can0 174#F57F0000356B0E28
(5.092166) can0 178#1C80042348950E3B
(5.092328) can0 17C#0000000056870EE1
(5.092496) can0 120#0000001000000030
(5.102415) can0 174#F57F00003E6B0FB5
(5.102585) can0 178#1C8005234A950F4F
(5.102753) can0 17C#000000003F870F2F
(5.112652) can0 290#0000000000000000
(5.112816) can0 12B#0000000000013F77
(5.112937) can0 174#F57F00003C6B000D
(5.113084) can0 178#168006224D950035
(5.122897) can0 17C#000000002C870000
(5.123060) can0 120#0000001000000050
(5.123221) can0 121#0000000000000040
(5.133152) can0 174#F57F0000356B0193
(5.133314) can0 178#0E800724529501DE
(5.133482) can0 17C#000000002F870191
(5.133644) can0 290#0010000000000000
(5.143381) can0 174#F57F00002D6B02A0
(5.143558) can0 178#088008234F95023F
(5.143737) can0 17C#000000003A870227
(5.153624) can0 174#F57F00002A6B0337
(5.153822) can0 178#0B8009204195031C
(5.153996) can0 17C#000000004287037E
(5.163869) can0 540#02000000100000F0
(5.163996) can0 290#0020000000000000
(5.164143) can0 12B#0000000000013F78
(5.164305) can0 174#F57F00002B6B04EB
(5.174110) can0 178#11800A212F9504E4
(5.174272) can0 17C#000000003D8704E3
(5.174434) can0 541#0280000000000000
(5.174565) can0 120#0000001000000090
(5.184367) can0 121#0000000000000080
(5.184537) can0 178#11800B292B950509
(5.184699) can0 17C#0000000032870578
(5.184865) can0 290#0040000000000000
(5.194596) can0 17C#000000003487065A
(5.194758) can0 120#00000010000000B0
(5.194920) can0 121#00000000000000A0
(5.204841) can0 450#0000000000000000
(5.204964) can0 290#0010000000000000
(5.205111) can0 12B#0000000000013F77
(5.205273) can0 120#00000010000000D0
(5.215082) can0 121#00000000000000C0
(5.215244) can0 129#00000000000000C0
(5.215406) can0 290#0030000000000000
(5.225325) can0 12B#0000000000013F77
(5.225446) can0 174#EA7F00002A6B0A27
(5.225600) can0 178#0B80012042950A12
(5.225769) can0 120#0000001000000030
(5.235583) can0 121#0000000000000020
(5.235745) can0 129#0000000000000020
(5.235907) can0 290#0030000000000000
(5.236030) can0 12B#0000000000013F77
(5.236135) can0 12A#1228012000000000
(5.236241) can0 550#1000000000000090
(5.236388) can0 120#0000001000000050
(5.245812) can0 121#0000000000000040
(5.245974) can0 129#0000000000000040
(5.246136) can0 12B#0000000000013F77
(5.246258) can0 540#02000000100000F0
(5.246364) can0 290#0010000000000000
(5.256063) can0 12B#0000000000013F78
(5.256225) can0 174#F57F0000416B0E66
(5.256387) can0 541#0280000000000000
(5.256517) can0 120#0000001000000070
(5.266297) can0 121#0000000000000060
(5.266459) can0 129#0000000000000060
(5.266629) can0 290#0050000000000000
(5.276541) can0 12B#0000000000013F77
(5.276703) can0 174#EA7F00003C6B00E8
(5.276866) can0 178#FA7F072139950009
(5.286785) can0 120#0000001000000090
(5.286947) can0 121#0000000000000080
(5.287109) can0 129#0000000000000080
(5.287270) can0 290#0020000000000000
(5.297041) can0 12B#0000000000013F77
(5.297167) can0 174#EC7F0000316B0284
(5.297316) can0 178#EC7F092536950287
(5.297482) can0 129#00000000000000A0
(5.307268) can0 12B#0000000000013F77
(5.307398) can0 290#0020000000000000
(5.307512) can0 290#0030000000000000
(5.307668) can0 12B#0000000000013F77
(5.307789) can0 174#EF7F00003C6B04A8
(5.307943) can0 290#0020000000000000
(5.317555) can0 128#1388030000EC7822
(5.317748) can0 12E#0000000000000020
(5.317919) can0 174#EF7F00003B6B053F
(5.327754) can0 12A#1228012000000000
(5.327884) can0 550#10000000000000D0
(5.328031) can0 174#EA7F0000366B06A9
(5.328201) can0 178#FA7F0000479506DA
(5.337997) can0 17C#0000000042870617
(5.338168) can0 12E#0000000000000040
(5.338331) can0 174#E47F0000306B07B0
(5.348254) can0 178#0E800120509507BC
(5.348416) can0 174#E77F0000306B08EC
(5.348585) can0 178#168002215095084F
(5.348747) can0 17C#0000000051870825
(5.358491) can0 541#0280000000000000
(5.358622) can0 174#EF7F0000386B092F
(5.358768) can0 178#16800324429509F0
(5.358930) can0 17C#000000004B87092F
(5.368726) can0 174#F57F00003E6B0ADC
(5.368896) can0 178#1180042F36950A3A
(5.369058) can0 17C#0000000051870A1F
(5.378969) can0 120#0000001000000070
(5.379131) can0 121#0000000000000060
(5.379293) can0 129#0000000000000060
(5.389212) can0 550#1000000000000030
(5.389375) can0 300#0F00000000000000
(5.389506) can0 174#EF7F0000436B0BDD
(5.389652) can0 174#EF7F0000436B0C8E
(5.399469) can0 178#1680062426950C10
(5.399637) can0 17C#000000005B870C5E
(5.399800) can0 174#F27F00003E6B0D01
(5.399962) can0 178#1C80072626950D28
(5.409698) can0 17C#0000000059870D40
(5.409865) can0 174#F87F0000396B0EC4
(5.410027) can0 178#1F80082026950EFD
(5.419941) can0 17C#0000000055870E6D
(5.420104) can0 174#FA7F0000396B0F63
(5.420265) can0 178#1680092525950F5A
(5.430184) can0 17C#0000000045870F68
(5.430346) can0 174#F87F0000406B00A9
(5.430517) can0 178#16800000209500EC
(5.440427) can0 17C#000000003587009B
(5.440601) can0 450#0000000000000000
(5.440724) can0 120#00000010000000D0
(5.440877) can0 121#00000000000000C0
(5.450683) can0 129#00000000000000C0
(5.450848) can0 174#F57F0000436B01DE
(5.451020) can0 178#168001252395018E
(5.451196) can0 17C#000000002F870191
(5.460918) can0 540#02000000100000F1
(5.461089) can0 174#EF7F0000406B02A4
(5.461251) can0 178#168002392C950266
(5.471156) can0 17C#00000000358702A1
(5.471318) can0 541#0280000000000000
(5.471441) can0 120#0000001000000030
(5.471601) can0 121#0000000000000020
(5.481399) can0 174#EC7F0000396B0395
(5.481574) can0 178#11800321339503B8
(5.481744) can0 17C#000000003F8703B3
(5.491641) can0 290#0040000000000000
(5.491815) can0 174#EA7F0000396B0415
(5.491977) can0 178#0080042033950499
(5.501892) can0 17C#000000003887046A
(5.502055) can0 120#0000001000000050
(5.502269) can0 300#0F00000000000000
(5.502418) can0 174#EA7F0000416B054C
(5.512141) can0 178#F87F000033950509
(5.512303) can0 17C#000000002E87056A
(5.512466) can0 174#EF7F0000416B065F
(5.512633) can0 178#FA7F000033950694
(5.522370) can0 17C#000000003487065A
(5.522541) can0 120#0000001000000070
(5.522703) can0 174#F87F0000386B07BE
(5.532613) can0 178#0080012237950740
(5.532775) can0 17C#000000004287070A
(5.532938) can0 290#0010000000000000
(5.542858) can0 12B#0000000000013F77
(5.542985) can0 174#FA7F00002A6B08A4
(5.543133) can0 178#06800220379508B1
(5.543310) can0 17C#000000004387083E
(5.553099) can0 174#F57F0000206B09EA
(5.553261) can0 178#11800332339509F5
(5.553423) can0 17C#0000000043870923
(5.563356) can0 290#0010000000000000
(5.563486) can0 12B#0000000000013F77
(5.563592) can0 174#F27F00001F6B0AED
(5.563738) can0 178#1F8004202C950A44
(5.563900) can0 17C#0000000040870A88
(5.564063) can0 450#0000000000000000
(5.564186) can0 120#00000010000000B0
(5.573585) can0 174#EF7F0000256B0B88
(5.573747) can0 178#1F8005232F950B05
(5.573910) can0 17C#0000000037870B57
(5.583829) can0 540#02000000100000F1
(5.583952) can0 174#F57F00002B6B0C03
(5.584098) can0 178#1680063236950C44
(5.584260) can0 17C#0000000029870C15
(5.594071) can0 541#0280000000000000
(5.594194) can0 174#F87F0000316B0DEF
(5.594340) can0 178#0E8007213C950DC8
(5.594508) can0 17C#000000001F870D25
(5.604314) can0 174#F27F0000336B0EA3
(5.604482) can0 178#0680082742950E69
(5.604644) can0 17C#0000000029870E2F
(5.614572) can0 178#0680000047950F34
(5.614734) can0 17C#0000000032870FAA
(5.614897) can0 450#0000000000000000
(5.615020) can0 290#0030000000000000
(5.615174) can0 17C#000000002F87008C
(5.624800) can0 120#0000001000000050
(5.624962) can0 121#0000000000000040
(5.625124) can0 290#0020000000000000
(5.635043) can0 12B#0000000000013F77
(5.635164) can0 174#EF7F0000366B02E9
(5.635310) can0 178#0080011242950287
(5.635473) can0 17C#00000000478702EA
(5.645286) can0 120#0000001000000070
(5.645448) can0 121#0000000000000060
(5.645616) can0 129#0000000000000060
(5.655530) can0 290#0020000000000000
(5.655653) can0 12B#0000000000013F77
(5.655758) can0 12A#1228012000000000
(5.655864) can0 120#0000001000000090
(5.656010) can0 121#0000000000000080
(5.656172) can0 129#0000000000000080
(5.665774) can0 12B#0000000000013F77
(5.665896) can0 290#0010000000000000
(5.666043) can0 540#02000000100000F1
(5.666202) can0 290#0030000000000000
(5.666362) can0 12B#0000000000013F77
(5.666491) can0 174#FA7F0000336B0699
(5.666635) can0 541#0280000000000000
(5.666758) can0 120#00000010000000B0
(5.676031) can0 121#00000000000000A0
(5.676197) can0 290#0040000000000000
(5.676360) can0 12B#0000000000013F77
(5.676492) can0 174#EF7F0000356B08B7
(5.686258) can0 120#00000010000000D0
(5.686419) can0 121#00000000000000C0
(5.686589) can0 129#00000000000000C0
(5.696508) can0 290#0040000000000000
(5.696631) can0 12B#0000000000013F77
(5.696736) can0 174#008000003E6B0A48
(5.696883) can0 120#0000001000000030
(5.697045) can0 121#0000000000000020
(5.706744) can0 129#0000000000000020
(5.706906) can0 12B#0000000000014F77
(5.707068) can0 290#0020000000000000
(5.716987) can0 12B#0000000000013F77
(5.717149) can0 174#F57F0000366B0C9E
(5.717311) can0 178#F87F0B033C950C09
(5.727243) can0 129#0000000000000040
(5.727406) can0 12B#0000000000013F77
(5.727535) can0 290#0030000000000000
(5.727691) can0 128#1388030000EC7862
(5.727858) can0 290#0020000000000000
(5.737472) can0 12B#0000000000013F77
(5.737602) can0 12A#1228012000000000
(5.737714) can0 550#1000000000000050
(5.737865) can0 290#0030000000000000
(5.738037) can0 128#1388030000EC7882
(5.747721) can0 12E#0000000000000080
(5.747890) can0 12B#0000000000013F77
(5.748012) can0 174#F87F0000316B006E
(5.748173) can0 178#14800F0D399500FE
(5.757964) can0 17C#000000004B8700DA
(5.758134) can0 541#0280000000000000
(5.758257) can0 128#1388030000EC78A2
(5.758402) can0 12E#00000000000000A0
(5.768207) can0 174#FA7F0000366B0143
(5.768368) can0 178#1980000237950118
(5.768538) can0 174#00800000366B02AC
(5.778458) can0 178#168001083A950237
(5.778625) can0 17C#000000002F8702B6
(5.778787) can0 12C#0000000000000000
(5.778909) can0 5A0#00692000000000C9
(5.779057) can0 550#1000000000000070
(5.788687) can0 174#00800000396B0464
(5.788852) can0 178#148001283F950400
(5.789014) can0 17C#00000000298704FD
(5.798930) can0 120#00000010000000D0
(5.799092) can0 174#FA7F0000386B053E
(5.799254) can0 178#148002203E9505B0
(5.809173) can0 17C#00000000318705F4
(5.809336) can0 174#FA7F0000356B069C
(5.809506) can0 178#08800321399506E8
(5.819416) can0 17C#000000002E87064D
(5.819586) can0 120#0000001000000030
(5.819748) can0 174#F57F0000336B07D8
(5.829673) can0 178#008004233695078D
(5.829836) can0 17C#000000002687075C
(5.829998) can0 174#EF7F0000366B083B
(5.830216) can0 178#FD7F05233695081A
(5.839902) can0 17C#0000000019870849
(5.840069) can0 174#EF7F0000356B09AA
(5.840231) can0 178#008006223A950968
(5.850145) can0 17C#00000000168709D2
(5.850308) can0 540#02000000100000F1
(5.850430) can0 174#F57F0000336B0A59
(5.850580) can0 178#068007243A950A9F
(5.860388) can0 17C#0000000024870ADE
(5.860565) can0 541#0280000000000000
(5.860688) can0 174#FA7F0000366B0B91
(5.860842) can0 178#0880082339950B87
(5.870631) can0 17C#000000003C870BD7
(5.870793) can0 290#0010000000000000
(5.870957) can0 174#FA7F0000396B0C44
(5.880876) can0 178#0380092039950C31
(5.881046) can0 17C#0000000043870C4A
(5.881209) can0 300#0F00000000000000
(5.881338) can0 174#FA7F0000396B0D59
(5.891130) can0 178#F87F0A213F950D9F
(5.891292) can0 17C#0000000045870D52
(5.891455) can0 174#FA7F0000416B0E3A
(5.891628) can0 178#F87F0B2945950E09
(5.901365) can0 17C#0000000042870EFF
(5.901543) can0 174#FA7F0000446B0FAE
(5.901705) can0 178#0080000045950FE4
(5.911610) can0 17C#0000000042870FE2
(5.911773) can0 290#0010000000000000
(5.911903) can0 174#FA7F0000416B009C
(5.912056) can0 178#068000003F9500CB
(5.921852) can0 17C#0000000042870059
(5.922023) can0 120#00000010000000D0
(5.922185) can0 121#00000000000000C0
(5.932089) can0 129#00000000000000C0
(5.932251) can0 12B#0000000000013F77
(5.932372) can0 174#FA7F0000396B01C5
(5.932527) can0 178#0B8000FF36950115
(5.942345) can0 17C#000000004B8701C7
(5.942512) can0 290#0010000000000000
(5.942635) can0 12B#0000000000014F77
(5.942781) can0 174#F87F0000316B0254
(5.942943) can0 178#0E8000002C9502B7
(5.952579) can0 17C#000000005C870272
(5.952742) can0 450#0000000000000000
(5.952865) can0 174#F57F00002E6B0331
(5.953011) can0 178#0680012026950357
(5.962823) can0 17C#00000000678703C7
(5.962986) can0 174#F57F00002D6B04EE
(5.963148) can0 178#FD7F02222C950407
(5.973060) can0 17C#000000005B8704B6
(5.973223) can0 174#FA7F00002A6B0525
(5.973385) can0 178#EC7F0326369505CD
(5.983303) can0 17C#00000000458705BA
(5.983466) can0 290#0020000000000000
(5.983634) can0 174#00800000286B06C9
(5.993561) can0 178#DE7F0425419506F5
(5.993723) can0 17C#000000003C870656
(5.993893) can0 120#0000001000000070
(5.994055) can0 300#0F00000000000000
(5.994178) can0 174#FD7F0000286B0792
(6.003789) can0 178#E47F05204895076C
(6.003950) can0 17C#000000004A870706
(6.004111) can0 450#0000000000000000
(6.004233) can0 290#0030000000000000
(6.014068) can0 174#F57F00002A6B08F8
(6.014242) can0 178#F87F06214A9508F5
(6.014403) can0 17C#0000000060870882
(6.024275) can0 178#0380072147950992
(6.024441) can0 17C#000000007787090D
(6.024610) can0 290#0040000000000000
(6.034519) can0 12B#0000000000014F77
(6.034641) can0 17C#0000000085870AA1
(6.034787) can0 120#00000010000000B0
(6.034948) can0 121#00000000000000A0
(6.044764) can0 290#0030000000000000
(6.044927) can0 12B#0000000000013F77
(6.045089) can0 12A#1228012000000000
(6.045209) can0 550#1000000000000050
(6.045355) can0 450#0000000000000000
(6.045482) can0 120#00000010000000D0
(6.055020) can0 121#00000000000000C0
(6.055182) can0 129#00000000000000C0
(6.055303) can0 540#02000000100000F1
(6.055409) can0 290#0050000000000000
(6.055564) can0 12B#0000000000013F77
(6.055690) can0 541#0280000000000000
(6.055799) can0 120#0000001000000030
(6.065247) can0 121#0000000000000020
(6.065409) can0 290#0010000000000000
(6.065579) can0 12B#0000000000013F77
(6.065700) can0 174#FA7F0000406B0013
(6.075498) can0 178#068001203F9500EB
(6.075660) can0 120#0000001000000050
(6.075822) can0 121#0000000000000040
(6.085733) can0 129#0000000000000040
(6.085895) can0 12B#0000000000013F78
(6.086057) can0 290#0040000000000000
(6.095976) can0 12B#0000000000014F77
(6.096138) can0 174#FA7F0000396B02E2
(6.096299) can0 120#0000001000000070
(6.106232) can0 121#0000000000000060
(6.106394) can0 129#0000000000000060
(6.106565) can0 290#0020000000000000
(6.106728) can0 12B#0000000000013F77
(6.116462) can0 174#EF7F0000336B042E
(6.116629) can0 120#0000001000000090
(6.116790) can0 121#0000000000000080
(6.126705) can0 129#0000000000000080
(6.126868) can0 12B#0000000000014F77
(6.127030) can0 290#0010000000000000
(6.136948) can0 12B#0000000000013F77
(6.137110) can0 12A#1228012000000000
(6.137231) can0 550#1000000000000090
(6.137385) can0 129#00000000000000A0
(6.147191) can0 290#0010000000000000
(6.147313) can0 12B#0000000000014F77
(6.147459) can0 290#0020000000000000
(6.147636) can0 12B#0000000000013F77
(6.157447) can0 174#FD7F0000406B0875
(6.157616) can0 178#0B8009253F950841
(6.157784) can0 12B#0000000000013F78
(6.157955) can0 290#0030000000000000
(6.167682) can0 128#1388030000EC7822
(6.167845) can0 12B#0000000000014F77
(6.168016) can0 174#F87F0000306B0A33
(6.177925) can0 178#FA7F012539950AF4
(6.178086) can0 12E#0000000000000040
(6.178257) can0 12A#1228012000000000
(6.178414) can0 12C#0000000000000000
(6.178536) can0 5A0#0069200000000089
(6.188168) can0 174#EC7F00003C6B0CA7
(6.188334) can0 178#038003212F950C12
(6.188504) can0 17C#0000000045870C4F
(6.198405) can0 120#0000001000000050
(6.198575) can0 174#EA7F0000406B0D2B
(6.198737) can0 178#088004202F950DAC
(6.208662) can0 17C#0000000050870DC3
(6.208828) can0 174#EA7F00003B6B0EC4
(6.208990) can0 178#0B8000002E950E1C
(6.209152) can0 17C#0000000059870E67
(6.218894) can0 174#E47F0000366B0F5D
(6.219056) can0 178#0680000029950F6D
(6.219225) can0 17C#0000000058870FF5
(6.229134) can0 290#0030000000000000
(6.229257) can0 550#10000000000000D0
(6.229404) can0 174#E47F0000336B006F
(6.229574) can0 178#F57F01222C95001F
(6.239377) can0 174#EA7F0000306B01FF
(6.239547) can0 178#E17F0220399501DA
(6.239708) can0 17C#000000003C870105
(6.249620) can0 540#02000000100000F1
(6.249743) can0 290#0010000000000000
(6.249890) can0 12B#0000000000013F77
(6.250053) can0 174#F57F00002D6B02A0
(6.259865) can0 178#DE7F0332449502D2
(6.260026) can0 17C#000000003287022B
(6.260189) can0 541#0280000000000000
(6.260312) can0 174#F87F00002D6B035B
(6.270120) can0 178#E47F04204A950371
(6.270281) can0 17C#00000000358703BC
(6.270444) can0 290#0030000000000000
(6.270615) can0 174#FA7F0000306B042F
(6.280349) can0 178#F27F05234895049B
(6.280527) can0 17C#000000004287042D
(6.280690) can0 120#00000010000000D0
(6.290592) can0 300#0F00000000000000
(6.290715) can0 174#00800000356B0573
(6.290865) can0 178#0680063244950543
(6.291027) can0 174#FA7F0000366B0610
(6.300845) can0 178#1C80072142950645
(6.301022) can0 17C#000000004587069D
(6.301184) can0 120#0000001000000030
(6.311078) can0 121#0000000000000020
(6.311240) can0 174#F87F0000366B07B7
(6.311402) can0 178#2780082741950722
(6.321340) can0 17C#000000002F8707DF
(6.321516) can0 174#F57F0000336B0863
(6.321678) can0 178#278000003F950811
(6.321849) can0 17C#0000000027870868
(6.331565) can0 120#0000001000000050
(6.331733) can0 174#F87F00002E6B0905
(6.331896) can0 178#228001203995091D
(6.341813) can0 17C#00000000328709E4
(6.341984) can0 174#F87F00002D6B0AAE
(6.342146) can0 178#168000002F950AB8
(6.352055) can0 17C#000000004A870A87
(6.352217) can0 450#0000000000000000
(6.352340) can0 120#0000001000000070
(6.352491) can0 121#0000000000000060
(6.362293) can0 174#EF7F00002D6B0B84
(6.362454) can0 178#008001122C950B2B
(6.362624) can0 17C#000000005B870B0D
(6.372586) can0 540#02000000100000F1
(6.372717) can0 290#0040000000000000
(6.372869) can0 12B#0000000000013F77
(6.372990) can0 174#EA7F00002E6B0C6F
(6.373137) can0 178#FA7F020F33950CFA
(6.373299) can0 17C#0000000058870CD2
(6.382779) can0 541#0280000000000000
(6.382905) can0 120#0000001000000090
(6.383051) can0 121#0000000000000080
(6.383213) can0 174#E47F00002E6B0D73
(6.393021) can0 178#0880030236950D51
(6.393184) can0 17C#0000000047870D51
(6.393346) can0 174#E77F00002B6B0E3A
(6.403273) can0 178#148004053C950E84
(6.403435) can0 17C#000000003C870EBE
(6.403614) can0 120#00000010000000B0
(6.413515) can0 121#00000000000000A0
(6.413677) can0 300#0F00000000000000
(6.413800) can0 174#EC7F00002A6B0F9D
(6.413946) can0 178#0880051241950FED
(6.423753) can0 174#EF7F00002A6B00C1
(6.423915) can0 178#008006143F950012
(6.424077) can0 17C#0000000037870098
(6.424238) can0 174#EF7F0000256B015A
(6.434009) can0 178#FD7F072F37950166
(6.434171) can0 17C#000000003C870105
(6.434334) can0 290#0020000000000000
(6.444236) can0 12B#0000000000014F77
(6.444399) can0 174#EF7F0000276B027E
(6.444568) can0 178#FA7F08022B9502A4
(6.454487) can0 17C#000000003A870227
(6.454650) can0 120#0000001000000030
(6.454812) can0 121#0000000000000020
(6.464722) can0 178#FA7F090F25950395
(6.464891) can0 17C#00000000298703AE
(6.465070) can0 290#0010000000000000
(6.474965) can0 12B#0000000000014F77
(6.475087) can0 17C#000000001E87045F
(6.475233) can0 450#0000000000000000
(6.475356) can0 120#0000001000000050
(6.475508) can0 121#0000000000000040
(6.485222) can0 540#02000000100000F1
(6.485344) can0 290#0020000000000000
(6.485496) can0 12B#0000000000013F77
(6.485659) can0 541#0280000000000000
(6.485782) can0 120#0000001000000070
(6.485927) can0 121#0000000000000060
(6.495451) can0 129#0000000000000060
(6.495620) can0 12B#0000000000014F77
(6.495782) can0 290#0030000000000000
(6.505694) can0 12B#0000000000013F77
(6.505861) can0 174#EF7F0000386B0832
(6.506023) can0 120#0000001000000090
(6.515937) can0 121#0000000000000080
(6.516099) can0 129#0000000000000080
(6.516261) can0 290#0010000000000000
(6.526180) can0 12B#0000000000014F77
(6.526342) can0 174#FA7F0000306B0A89
(6.526512) can0 120#00000010000000B0
(6.536436) can0 121#00000000000000A0
(6.536607) can0 129#00000000000000A0
(6.536769) can0 290#0010000000000000
(6.536891) can0 12B#0000000000014F77
(6.536997) can0 174#00800000236B0C9B
(6.537197) can0 178#F87F000042950C3B
(6.546666) can0 120#00000010000000D0
(6.546832) can0 121#00000000000000C0
(6.546994) can0 129#00000000000000C0
(6.556909) can0 290#0020000000000000
(6.557072) can0 12B#0000000000013F77
(6.557234) can0 12A#1228012000000000
(6.557355) can0 550#10000000000000D0
(6.557462) can0 120#0000001000000030
(6.567152) can0 121#0000000000000020
(6.567314) can0 129#0000000000000020
(6.567482) can0 290#0020000000000000
(6.567604) can0 290#0010000000000000
(6.577395) can0 12B#0000000000013F77
(6.577524) can0 174#FA7F0000186B0067
(6.577678) can0 121#0000000000000040
(6.577843) can0 129#0000000000000040
(6.587657) can0 12B#0000000000014F77
(6.587820) can0 290#0040000000000000
(6.587990) can0 290#0010000000000000
(6.588162) can0 12B#0000000000014F77
(6.588284) can0 174#F87F0000236B024F
(6.597888) can0 178#F87F06223E9502D3
(6.598050) can0 290#0000000000000000
(6.598220) can0 128#1388030000EC7882
(6.608129) can0 12E#0000000000000080
(6.608292) can0 12B#0000000000014F77
(6.608414) can0 174#EA7F0000396B0415
(6.608581) can0 178#FD7F0823479504E9
(6.618366) can0 17C#000000004A870421
(6.618537) can0 12E#00000000000000A0
(6.618700) can0 174#EA7F0000416B054C
(6.628609) can0 178#0B80092041950552
(6.628771) can0 174#F27F0000406B068F
(6.628933) can0 178#0B800A213795061B
(6.638854) can0 17C#000000002F8706C2
(6.639017) can0 120#00000010000000B0
(6.639179) can0 174#FA7F0000366B070D
(6.649109) can0 178#03800B29369507AD
(6.649271) can0 17C#000000001B8707F1
(6.649434) can0 290#0010000000000000
(6.649605) can0 12B#0000000000013F77
(6.659338) can0 550#1000000000000050
(6.659508) can0 174#F57F0000336B0863
(6.659670) can0 178#008000003A950879
(6.669581) can0 17C#00000000168708CF
(6.669752) can0 174#EC7F0000306B09C4
(6.669914) can0 178#0B8000003A950951
(6.679825) can0 17C#000000001B870957
(6.679988) can0 174#EA7F0000306B0A30
(6.680149) can0 178#168000FF39950A03
(6.690067) can0 17C#0000000024870ADE
(6.690230) can0 174#EF7F0000336B0B95
(6.690392) can0 178#0E80000036950B55
(6.700324) can0 17C#0000000029870B46
(6.700500) can0 174#F87F0000306B0C7D
(6.700663) can0 178#0380012031950C4A
(6.700840) can0 17C#000000002C870C9C
(6.710554) can0 120#0000001000000050
(6.710716) can0 121#0000000000000040
(6.710838) can0 300#0F00000000000000
(6.710945) can0 174#F87F0000306B0D60
(6.711091) can0 178#FD7F022231950D6F
(6.720801) can0 17C#0000000032870D90
(6.721006) can0 174#F57F0000336B0E2D
(6.721180) can0 178#FA7F032637950EE7
(6.731039) can0 17C#000000002E870EA5
(6.731202) can0 174#F57F0000396B0F3F
(6.731364) can0 178#FD7F04253E950F46
(6.741287) can0 17C#0000000023870F3D
(6.741458) can0 174#F57F0000396B0084
(6.741624) can0 178#0B8005203E950037
(6.751545) can0 17C#000000001C870028
(6.751714) can0 120#0000001000000090
(6.751876) can0 174#F87F0000366B01F9
(6.752047) can0 178#118006213E9501D8
(6.761768) can0 17C#000000001B8701BF
(6.761938) can0 290#0000000000000000
(6.762109) can0 12B#0000000000014F77
(6.772011) can0 12A#1228012000000000
(6.772132) can0 174#FA7F0000396B02E2
(6.772278) can0 178#11800721429502D7
(6.772440) can0 17C#00000000238702BC
(6.782259) can0 450#0000000000000000
(6.782382) can0 120#00000010000000B0
(6.782543) can0 121#00000000000000A0
(6.782705) can0 129#00000000000000A0
(6.792504) can0 174#FA7F0000366B0379
(6.792666) can0 178#088008204A950311
(6.792830) can0 17C#00000000358703BC
(6.802748) can0 540#02000000100000F1
(6.802870) can0 174#F57F0000366B0476
(6.803017) can0 178#0B8009254D950496
(6.803179) can0 17C#000000004D8704AB
(6.803340) can0 174#F27F00003C6B05EA
(6.812998) can0 178#14800A2944950581
(6.813160) can0 17C#000000005687052E
(6.813323) can0 174#EF7F00003C6B0692
(6.823225) can0 178#148000003795068A
(6.823388) can0 17C#000000004787069E
(6.823558) can0 300#0F00000000000000
(6.823681) can0 174#F27F0000386B07D6
(6.833468) can0 178#0B800120349507DE
(6.833638) can0 17C#000000003C87074B
(6.833800) can0 174#F87F0000316B0886
(6.843711) can0 178#0E8000003A950878
(6.843874) can0 17C#0000000037870870
(6.844037) can0 174#FA7F00002B6B0936
(6.853954) can0 178#14800120429509D0
(6.854116) can0 17C#00000000328709E4
(6.854279) can0 174#F57F0000286B0AC1
(6.864211) can0 178#1680022145950AE4
(6.864373) can0 17C#000000002E870AD1
(6.864553) can0 120#0000001000000070
(6.864715) can0 174#F57F0000286B0BDC
(6.874440) can0 178#1680032442950BCA
(6.874609) can0 17C#0000000029870B46
(6.874772) can0 290#0040000000000000
(6.884683) can0 174#F87F00002D6B0CE0
(6.884848) can0 178#1F80042F3C950C7A
(6.885010) can0 17C#000000002A870C99
(6.894926) can0 450#0000000000000000
(6.895049) can0 178#2280051233950D9B
(6.895195) can0 17C#0000000038870D9F
(6.895358) can0 540#02000000100000F1
(6.895488) can0 17C#0000000043870E70
(6.905169) can0 541#0280000000000000
(6.905292) can0 120#00000010000000B0
(6.905482) can0 121#00000000000000A0
(6.905611) can0 129#00000000000000A0
(6.905717) can0 290#0010000000000000
(6.905869) can0 12B#0000000000014F77
(6.905991) can0 174#F27F0000286B009D
(6.915426) can0 120#00000010000000D0
(6.915597) can0 121#00000000000000C0
(6.915759) can0 129#00000000000000C0
(6.915922) can0 290#0020000000000000
(6.925655) can0 12B#0000000000014F77
(6.925776) can0 174#EF7F0000206B02F4
(6.925923) can0 178#168000002E9502DF
(6.926085) can0 120#0000001000000030
(6.935899) can0 121#0000000000000020
(6.936061) can0 129#0000000000000020
(6.936223) can0 290#0020000000000000
(6.936346) can0 12B#0000000000014F78
(6.946141) can0 174#EF7F00001D6B0417
(6.946303) can0 178#0B800239399504E6
(6.946465) can0 120#0000001000000050
(6.956384) can0 121#0000000000000040
(6.956554) can0 129#0000000000000040
(6.956716) can0 290#0030000000000000
(6.966640) can0 12B#0000000000014F78
(6.966762) can0 12A#1228012000000000
(6.966868) can0 550#1000000000000050
(6.966975) can0 120#0000001000000070
(6.967121) can0 121#0000000000000060
(6.967283) can0 129#0000000000000060
(6.967445) can0 290#0020000000000000
(6.976872) can0 290#0030000000000000
(6.977035) can0 12B#0000000000014F78
(6.977157) can0 174#EC7F0000336B0855
(6.977303) can0 178#088000003E9508AD
(6.987113) can0 541#0280000000000000
(6.987236) can0 120#0000001000000090
(6.987382) can0 121#0000000000000080
(6.987552) can0 290#0000000000000000
