(0.376160) can0 290#0000000000000000
(0.376814) can0 12B#0000000000000000
(0.376984) can0 128#7FFF0300007FFF5F
(0.377158) can0 12E#4000000000000040
(0.377332) can0 174#EF7F0000926A073A
(0.377510) can0 178#8C800726E0950747
(0.377683) can0 17C#00000000B57F07B0
(0.377863) can0 290#0000000000000000
(0.378001) can0 12B#0000000000000000
(0.378143) can0 12A#1208002000000000
(0.378305) can0 550#0000000000000080
(0.378484) can0 174#F27F0000956A0854
(0.378654) can0 178#8C800820E09508E9
(0.378816) can0 17C#00000000BA7F088D
(0.378978) can0 450#0000000000000000
(0.379212) can0 290#0000000000000000
(0.379342) can0 12B#0000000000000000
(0.379447) can0 128#7FFF0300007FFF7F
(0.379601) can0 12E#4000000000000060
(0.379763) can0 174#FA7F00009B6A0992
(0.379924) can0 178#7B800925DE95094B
(0.380085) can0 17C#00000000D37F0943
(0.380248) can0 290#0000000000000000
(0.380370) can0 12B#0000000000000000
(0.380479) can0 174#03800000A66A0A37
(0.380625) can0 178#73800000DA950A3C
(0.380787) can0 17C#00000000FB7F0A58
(0.400265) can0 290#0000000000000000
(0.400611) can0 12B#0000000000000000
(0.400736) can0 128#7FFF0300007FFF9F
(0.400969) can0 12E#4000000000000080
(0.401131) can0 174#03800000A36A0BA3
(0.401292) can0 178#7E800125D2950B38
(0.401524) can0 17C#0000000008800B00
(0.401693) can0 290#0000000000000000
(0.401823) can0 12B#0000000000000000
(0.401929) can0 174#008000008A6A0CA4
(0.402084) can0 178#8F800239D0950CD5
(0.402245) can0 17C#00000000EA7F0C81
(0.402415) can0 290#0000000000000000
(0.402550) can0 12B#0000000000000000
(0.402656) can0 128#7FFF0300007FFFBF
(0.402811) can0 12E#40000000000000A0
(0.402973) can0 12A#1208002000000000
(0.403094) can0 12C#0000000000000000
(0.403251) can0 5A0#0000000000000020
(0.403694) can0 550#00000000000000A0
(0.408068) can0 174#F57F0000656A0D3B
(0.408299) can0 178#91800321D8950DAF
(0.408537) can0 17C#00000000C67F0DA6
(0.408785) can0 450#0000000000000000
(0.411599) can0 290#0000000000000000
(0.411844) can0 12B#0000000000000000
(0.418061) can0 174#EA7F00004C6A0E4A
(0.418290) can0 178#86800420E5950E84
(0.418535) can0 17C#00000000BD7F0E49
(0.421296) can0 290#0000000000000000
(0.421554) can0 12B#0000000000000000
(0.421796) can0 128#7FFF0300007FFFDF
(0.422038) can0 12E#40000000000000C0
(0.428068) can0 174#E47F00004D6A0FD9
(0.428298) can0 178#78800000E5950FCE
(0.428540) can0 17C#00000000C87F0F95
(0.431422) can0 290#0000000000000000
(0.431667) can0 12B#0000000000000000
(0.438064) can0 174#E17F0000706A00FB
(0.438296) can0 178#68800000D095006D
(0.438554) can0 17C#00000000D07F003A
(0.441326) can0 290#0000000000000000
(0.441573) can0 12B#0000000000000000
(0.441816) can0 128#7FFF0300007FFF3F
(0.442058) can0 12E#4000000000000020
(0.448057) can0 174#EA7F00009B6A01C3
(0.448283) can0 178#5A800122B495014D
(0.448532) can0 17C#00000000D37F01AB
(0.451400) can0 290#0000000000000000
(0.451657) can0 12B#0000000000000000
(0.451898) can0 12A#1208002000000000
(0.453699) can0 550#00000000000000C0
(0.458071) can0 174#EA7F0000B66A0251
(0.458294) can0 178#5A800220A89502E1
(0.458539) can0 17C#00000000D07F0200
(0.458800) can0 450#0000000000000000
(0.461538) can0 290#0000000000000000
(0.461787) can0 12B#0000000000000000
(0.462028) can0 128#7FFF0300007FFF5F
(0.462278) can0 12E#4000000000000040
(0.468068) can0 174#EA7F0000AD6A03D4
(0.468292) can0 178#62800332B195030B
(0.468535) can0 17C#00000000C37F0389
(0.471445) can0 290#0000000000000000
(0.471685) can0 12B#0000000000000000
(0.478056) can0 174#EC7F00008F6A0467
(0.478292) can0 178#62800420CA950499
(0.478531) can0 17C#00000000BB7F049E
(0.481329) can0 290#0000000000000000
(0.481575) can0 12B#0000000000000000
(0.481831) can0 128#7FFF0300007FFF7F
(0.482078) can0 12E#4000000000000060
(0.488067) can0 174#F57F0000716A05CD
(0.488294) can0 178#5A800523EB9505EF
(0.488535) can0 17C#00000000C57F05C2
(0.491426) can0 290#0000000000000000
(0.491731) can0 12B#0000000000000000
(0.498076) can0 174#F87F0000606A069B
(0.498298) can0 178#57800632049606EA
(0.498539) can0 17C#00000000D97F06F7
(0.501322) can0 290#0000000000000000
(0.501566) can0 12B#0000000000000000
(0.501822) can0 128#7FFF0300007FFF9F
(0.502079) can0 12E#4000000000000080
(0.502311) can0 12A#1208002000000000
(0.502561) can0 12C#0000000000000000
(0.502816) can0 5A0#0000000000000040
(0.503695) can0 550#0000000000000020
(0.508061) can0 174#F57F0000606A0760
(0.508293) can0 178#54800721069607E6
(0.508546) can0 17C#00000000E57F07C8
(0.508799) can0 450#0000000000000000
(0.511599) can0 290#0000000000000000
(0.511844) can0 12B#0000000000000000
(0.518065) can0 174#F57F0000686A08D7
(0.518293) can0 178#5C800827F395084F
(0.518534) can0 17C#00000000EF7F087C
(0.521350) can0 290#0000000000000000
(0.521597) can0 12B#0000000000000000
(0.521850) can0 128#7FFF0300007FFFBF
(0.522089) can0 12E#40000000000000A0
(0.528060) can0 174#F87F0000766A093D
(0.528294) can0 178#6D800000DE9509A5
(0.528540) can0 17C#00000000F77F0975
(0.531431) can0 290#0000000000000000
(0.531676) can0 12B#0000000000000000
(0.538061) can0 174#F27F00007F6A0AF1
(0.538286) can0 178#76800120D5950AAE
(0.538539) can0 17C#00000000F77F0A52
(0.541348) can0 290#0000000000000000
(0.541593) can0 12B#0000000000000000
(0.541844) can0 128#7FFF0300007FFFDF
(0.542087) can0 12E#40000000000000C0
(0.548069) can0 174#EF7F00008C6A0BB7
(0.548307) can0 178#73800000CF950BB0
(0.548545) can0 17C#00000000F87F0BC9
(0.551450) can0 290#0000000000000000
(0.551704) can0 12B#0000000000000000
(0.551950) can0 12A#1208002000000000
(0.553704) can0 550#0000000000000040
(0.558057) can0 174#EF7F00009B6A0C76
(0.558283) can0 178#68800112C9950C02
(0.558535) can0 17C#00000000FB7F0C16
(0.558784) can0 450#0000000000000000
(0.561586) can0 290#0000000000000000
(0.561830) can0 12B#0000000000000000
(0.562085) can0 128#7FFF0300007FFF3F
(0.562332) can0 12E#4000000000000020
(0.568057) can0 174#EF7F0000AD6A0D46
(0.568287) can0 178#6580020FC5950D27
(0.568542) can0 17C#0000000002800D41
(0.571423) can0 290#0000000000000000
(0.571667) can0 12B#0000000000000000
(0.578064) can0 174#EF7F0000B16A0E73
(0.578290) can0 178#6A800302C7950E7A
(0.578543) can0 17C#0000000005800EEC
(0.581330) can0 290#0000000000000000
(0.581578) can0 12B#0000000000000000
(0.581820) can0 128#7FFF0300007FFF5F
(0.582066) can0 12E#4000000000000040
(0.588068) can0 174#EF7F0000A56A0F70
(0.588292) can0 178#70800405CD950F46
(0.588539) can0 17C#0000000005800FF1
(0.591458) can0 290#0000000000000000
(0.591705) can0 12B#0000000000000000
(0.598057) can0 174#F57F0000926A00B8
(0.598285) can0 178#65800512DA950059
(0.598535) can0 17C#000000000B800043
(0.601358) can0 290#0000000000000000
(0.601618) can0 12B#0000000000000000
(0.601857) can0 128#7FFF0300007FFF7F
(0.602103) can0 12E#4000000000000060
(0.602348) can0 12A#1208002000000000
(0.602597) can0 12C#0000000000000000
(0.602853) can0 5A0#0000000000000060
(0.603705) can0 550#0000000000000060
(0.608065) can0 174#FA7F0000866A01E7
(0.608288) can0 178#54800614EE950136
(0.608531) can0 17C#00000000108001C6
(0.608791) can0 450#0000000000000000
(0.611656) can0 290#0000000000000000
(0.611906) can0 12B#0000000000000000
(0.618075) can0 174#F87F00007F6A0271
(0.618306) can0 178#5480072FFE95022A
(0.618552) can0 17C#00000000FE7F0239
(0.621344) can0 290#0000000000000000
(0.621588) can0 12B#0000000000000000
(0.621837) can0 128#7FFF0300007FFF9F
(0.622079) can0 12E#4000000000000080
(0.628060) can0 174#F57F00007B6A038C
(0.628294) can0 178#5F800802FF9503F4
(0.628550) can0 17C#00000000E97F03B6
(0.631429) can0 290#0000000000000000
(0.631670) can0 12B#0000000000000000
(0.638055) can0 174#F57F00007C6A0455
(0.638298) can0 178#7380090FF09504D0
(0.638540) can0 17C#00000000E47F0460
(0.641329) can0 290#0000000000000000
(0.641580) can0 12B#0000000000000000
(0.641825) can0 128#7FFF0300007FFFBF
(0.642075) can0 12E#40000000000000A0
(0.648056) can0 174#F57F00008A6A05C5
(0.648287) can0 178#7B800A13D4950560
(0.648539) can0 17C#00000000EC7F0571
(0.651419) can0 290#0000000000000000
(0.651668) can0 12B#0000000000000000
(0.651913) can0 12A#1208002000000000
(0.653705) can0 550#0000000000000080
(0.658069) can0 174#F27F0000A26A0650
(0.658300) can0 178#81800B03BB95061F
(0.658547) can0 17C#00000000F27F0647
(0.658801) can0 450#0000000000000000
(0.661554) can0 290#0000000000000000
(0.661795) can0 12B#0000000000000000
(0.662039) can0 128#7FFF0300007FFFDF
(0.662292) can0 12E#40000000000000C0
(0.668068) can0 174#F27F0000B06A0756
(0.668299) can0 178#86800C08AC950733
(0.668548) can0 17C#00000000F77F07D3
(0.671422) can0 290#0000000000000000
(0.671669) can0 12B#0000000000000000
(0.678064) can0 174#F57F0000AA6A0874
(0.678292) can0 178#89800D2FB395089E
(0.678546) can0 17C#00000000F07F08E2
(0.681343) can0 290#0000000000000000
(0.681589) can0 12B#0000000000000000
(0.681837) can0 128#7FFF0300007FFF3F
(0.682079) can0 12E#4000000000000020
(0.688064) can0 174#F57F0000A06A0966
(0.688302) can0 178#86800E07C99509F0
(0.688549) can0 17C#00000000DF7F0949
(0.691429) can0 290#0000000000000000
(0.691677) can0 12B#0000000000000000
(0.698068) can0 174#F87F00009B6A0A0F
(0.698293) can0 178#7E800F0DE3950A42
(0.698547) can0 17C#00000000D07F0AE8
(0.701369) can0 290#0000000000000000
(0.701610) can0 12B#0000000000000000
(0.701855) can0 128#7FFF0300007FFF5F
(0.702116) can0 12E#4000000000000040
(0.702358) can0 12A#1208002000000000
(0.702604) can0 12C#0000000000000000
(0.702852) can0 5A0#0000000000000080
(0.703699) can0 550#00000000000000A0
(0.708056) can0 174#FA7F0000926A0B2B
(0.708290) can0 178#7B800002F3950B67
(0.708528) can0 17C#00000000CB7F0B6D
(0.708784) can0 450#0000000000000000
(0.711644) can0 290#0000000000000000
(0.711903) can0 12B#0000000000000000
(0.718063) can0 174#F57F00008D6A0CBA
(0.718288) can0 178#7B800108F4950C6F
(0.718530) can0 17C#00000000C37F0C32
(0.721340) can0 290#0000000000000000
(0.721588) can0 12B#0000000000000000
(0.721830) can0 128#7FFF0300007FFF7F
(0.722072) can0 12E#4000000000000060
(0.728060) can0 174#EF7F0000896A0D70
(0.728290) can0 178#7E800000ED950D2B
(0.728547) can0 17C#00000000B27F0DE8
(0.731400) can0 290#0000000000000000
(0.731643) can0 12B#0000000000000000
(0.738067) can0 174#EF7F0000866A0ED1
(0.738286) can0 178#81800128E3950E4C
(0.738527) can0 17C#00000000A57F0E5D
(0.741354) can0 290#0000000000000000
(0.741600) can0 12B#0000000000000000
(0.741849) can0 128#7FFF0300007FFF9F
(0.742092) can0 12E#4000000000000080
(0.748068) can0 174#EF7F00008C6A0FC3
(0.748295) can0 178#86800220D7950FD3
(0.748536) can0 17C#00000000A27F0FCA
(0.751453) can0 290#0000000000000000
(0.751700) can0 12B#0000000000000000
(0.751953) can0 12A#1208002000000000
(0.753705) can0 550#00000000000000C0
(0.758065) can0 174#E77F0000976A0032
(0.758292) can0 178#83800321D0950021
(0.758542) can0 17C#00000000A77F00F8
(0.758791) can0 450#0000000000000000
(0.761599) can0 290#0000000000000000
(0.761849) can0 12B#0000000000000000
(0.762093) can0 128#7FFF0300007FFFBF
(0.762332) can0 12E#40000000000000A0
(0.768057) can0 174#E77F0000A56A0104
(0.768298) can0 178#76800423D7950107
(0.768538) can0 17C#000000009F7F01C1
(0.771425) can0 290#0000000000000000
(0.771673) can0 12B#0000000000000000
(0.778069) can0 174#EF7F0000AD6A02FD
(0.778299) can0 178#5F800523E3950284
(0.778578) can0 17C#000000008C7F0272
(0.781341) can0 290#0000000000000000
(0.781584) can0 12B#0000000000000000
(0.781837) can0 128#7FFF0300007FFFDF
(0.782079) can0 12E#40000000000000C0
(0.788064) can0 174#F57F0000AD6A0331
(0.788291) can0 178#4C800622E8950364
(0.788535) can0 17C#00000000887F0369
(0.791440) can0 290#0000000000000000
(0.791688) can0 12B#0000000000000000
(0.798060) can0 174#FA7F0000A26A04B8
(0.798288) can0 178#43800724E39504E8
(0.798538) can0 17C#00000000907F042E
(0.801329) can0 290#0000000000000000
(0.801578) can0 12B#0000000000000000
(0.801824) can0 128#7FFF0300007FFF3F
(0.802070) can0 12E#4000000000000020
(0.802311) can0 12A#1208002000000000
(0.802572) can0 12C#0000000000000000
(0.802821) can0 5A0#00000000000000A0
(0.803701) can0 550#0000000000000020
(0.808060) can0 174#FA7F0000976A0504
(0.808298) can0 178#43800823DE9505D0
(0.808539) can0 17C#00000000997F05B0
(0.808800) can0 450#0000000000000000
(0.811625) can0 290#0000000000000000
(0.811871) can0 12B#0000000000000000
(0.818067) can0 174#F87F0000916A069C
(0.818296) can0 178#4C800920E095065A
(0.818543) can0 17C#000000009C7F061E
(0.821361) can0 290#0000000000000000
(0.821612) can0 12B#0000000000000000
(0.821857) can0 128#7FFF0300007FFF5F
(0.822110) can0 12E#4000000000000040
(0.828052) can0 174#F57F00008F6A0776
(0.828289) can0 178#4C800A21E59507ED
(0.828535) can0 17C#00000000A27F0722
(0.831539) can0 290#0000000000000000
(0.831782) can0 12B#0000000000000000
(0.838056) can0 174#EF7F00008D6A081F
(0.838289) can0 178#49800B29E6950818
(0.838534) can0 17C#00000000A57F0813
(0.841331) can0 290#0000000000000000
(0.841575) can0 12B#0000000000000000
(0.841832) can0 128#7FFF0300007FFF7F
(0.842071) can0 12E#4000000000000060
(0.848056) can0 174#EF7F00008D6A0902
(0.848298) can0 178#49800000E395090E
(0.848545) can0 17C#000000009F7F0929
(0.851403) can0 290#0000000000000000
(0.851648) can0 12B#0000000000000000
(0.851902) can0 12A#1208002000000000
(0.853710) can0 550#0000000000000040
(0.858068) can0 174#EF7F00008F6A0A26
(0.858303) can0 178#3E800000E0950A23
(0.858540) can0 17C#00000000A47F0AA6
(0.858789) can0 450#0000000000000000
(0.861551) can0 290#0000000000000000
(0.861792) can0 12B#0000000000000000
(0.862035) can0 128#7FFF0300007FFF9F
(0.862290) can0 12E#4000000000000080
(0.868053) can0 174#EF7F00008D6A0B38
(0.868287) can0 178#358000FFDA950B8A
(0.868539) can0 17C#00000000AC7F0BB7
(0.871445) can0 290#0040000000000000
(0.871690) can0 12B#0000000000012004
(0.878064) can0 174#EF7F00008D6A0C6B
(0.878302) can0 178#30800000D0950C44
(0.878537) can0 17C#00000000AF7F0C68
(0.881352) can0 290#0030000000000000
(0.881600) can0 12B#0000000000012005
(0.881833) can0 128#1388030000EC78A2
(0.882084) can0 12E#00000000000000A0
(0.888057) can0 174#EC7F0000916A0D83
(0.888295) can0 178#24800120CD950D34
(0.888536) can0 17C#00000000AA7F0DFC
(0.891426) can0 290#0000000000000000
(0.891684) can0 12B#0000000000012004
(0.898061) can0 174#EA7F0000956A0E71
(0.898288) can0 178#14800222CA950ED6
(0.898534) can0 17C#00000000A27F0ED7
(0.901361) can0 290#0010000000000000
(0.901642) can0 12B#0000000000012004
(0.901846) can0 128#1388030000EC78C2
(0.902088) can0 12E#00000000000000C0
(0.902341) can0 12A#1208002000000000
(0.902592) can0 12C#0000000000000000
(0.902834) can0 5A0#00692000000000C9
(0.903709) can0 550#0000000000000060
(0.907624) can0 300#0F00000000000000
(0.908060) can0 174#EA7F0000976A0F6F
(0.908294) can0 178#FD7F0326C7950FFC
(0.908540) can0 17C#000000009A7F0FEE
(0.908801) can0 450#0000000000000000
(0.911700) can0 290#0030000000000000
(0.911898) can0 12B#0000000000011004
(0.918064) can0 174#EA7F0000946A0058
(0.918295) can0 178#EC7F0425C295009B
(0.918536) can0 17C#000000008E7F004B
(0.921308) can0 290#0030000000000000
(0.921567) can0 12B#0000000000012004
(0.921797) can0 128#1388030000EC7822
(0.922061) can0 12E#0000000000000020
(0.928057) can0 174#EA7F00008F6A01DD
(0.928288) can0 178#EF7F0520BF950115
(0.928546) can0 17C#00000000807F015F
(0.931380) can0 290#0000000000000000
(0.931628) can0 12B#0000000000012004
(0.938064) can0 174#EA7F0000866A0279
(0.938290) can0 178#EF7F0621C1950250
(0.938534) can0 17C#000000007A7F02FF
(0.941309) can0 290#0030000000000000
(0.941552) can0 12B#0000000000012004
(0.941790) can0 128#1388030000EC7842
(0.942036) can0 12E#0000000000000040
(0.948068) can0 174#EC7F00007B6A03BA
(0.948300) can0 178#E47F0721CA950392
(0.948548) can0 17C#00000000787F03E1
(0.951417) can0 290#0000000000000000
(0.951661) can0 12B#0000000000012004
(0.951916) can0 12A#1208012000000000
(0.953710) can0 550#0000000000000080
(0.958060) can0 174#EF7F0000766A048B
(0.958299) can0 178#D97F0820D4950401
(0.958540) can0 17C#000000007D7F043B
(0.958788) can0 450#0000000000000000
(0.961539) can0 290#0010000000000000
(0.961783) can0 12B#0000000000012004
(0.962014) can0 128#1388030000EC7862
(0.962264) can0 12E#0000000000000060
(0.968053) can0 174#EF7F00007C6A0599
(0.968295) can0 178#DC7F0925E09505BF
(0.968540) can0 17C#00000000907F0533
(0.971418) can0 290#0020000000000000
(0.971667) can0 12B#0000000000012003
(0.978061) can0 174#F57F00008C6A06E7
(0.978288) can0 178#E47F0A29E29506F3
(0.978534) can0 17C#00000000A47F063A
(0.981344) can0 290#0010000000000000
(0.981594) can0 12B#0000000000012004
(0.981826) can0 128#1388030000EC7882
(0.982085) can0 12E#0000000000000080
(0.988060) can0 174#F57F0000956A0761
(0.988294) can0 178#E77F0000D7950740
(0.988543) can0 17C#00000000B57F07B0
(0.991418) can0 290#0020000000000000
(0.991667) can0 12B#0000000000011003
(0.998053) can0 174#F27F0000986A08D1
(0.998295) can0 178#D97F0120C995081D
(0.998536) can0 17C#00000000C57F0843
(1.001318) can0 290#0020000000000000
(1.001568) can0 12B#0000000000012003
(1.001805) can0 128#1388030000EC78A2
(1.002052) can0 12E#00000000000000A0
(1.002298) can0 12A#1208012000000000
(1.002548) can0 12C#0000000000000000
(1.002792) can0 5A0#0069200000000029
(1.003704) can0 550#00000000000000A0
(1.007620) can0 300#0F00000000000000
(1.008064) can0 174#EA7F0000956A0922
(1.008295) can0 178#CB7F0000C29509A3
(1.008533) can0 17C#00000000C57F095E
(1.008796) can0 450#0000000000000000
(1.011589) can0 290#0010000000000000
(1.014144) can0 12B#0000000000012004
(1.018060) can0 174#E77F0000916A0AE5
(1.018294) can0 178#C07F0120C4950A94
(1.024401) can0 17C#00000000B27F0ABB
(1.024570) can0 290#0010000000000000
(1.024692) can0 12B#0000000000012003
(1.024840) can0 128#1388030000EC78C2
(1.025000) can0 12E#00000000000000C0
(1.034630) can0 174#E77F0000866A0B6A
(1.034791) can0 178#BA7F0221CA950BC3
(1.034952) can0 17C#000000009F7F0B13
(1.044875) can0 290#0000000000000000
(1.045037) can0 12B#0000000000012003
(1.045158) can0 174#EF7F00007B6A0CE6
(1.045304) can0 178#BA7F0324CD950CA3
(1.055116) can0 17C#00000000997F0C45
(1.055278) can0 290#0010000000000000
(1.055440) can0 12B#0000000000012003
(1.055569) can0 128#1388030000EC7822
(1.065359) can0 12E#0000000000000020
(1.065529) can0 174#EF7F0000706A0D7B
(1.065690) can0 178#B77F042FD0950DE8
(1.075616) can0 17C#00000000A77F0D79
(1.075777) can0 290#0010000000000000
(1.075899) can0 12B#0000000000012003
(1.076004) can0 12A#1208012000000000
(1.076109) can0 550#00000000000000C0
(1.076256) can0 174#EF7F0000736A0ED0
(1.076417) can0 178#B47F0512CD950EFF
(1.085847) can0 17C#00000000B87F0EC0
(1.086009) can0 450#0000000000000000
(1.086131) can0 290#0030000000000000
(1.086277) can0 12B#0000000000012003
(1.086398) can0 128#1388030000EC7842
(1.096088) can0 12E#0000000000000040
(1.096250) can0 174#EF7F00007F6A0FC7
(1.096411) can0 178#A97F0624CC950F8A
(1.106331) can0 17C#00000000C37F0F15
(1.106501) can0 290#0020000000000000
(1.106663) can0 12B#0000000000012003
(1.106785) can0 174#EF7F0000896A00F1
(1.116576) can0 178#A47F0726CA95009F
(1.116738) can0 17C#00000000C37F00AE
(1.116900) can0 290#0000000000000000
(1.126820) can0 12B#0000000000012003
(1.126942) can0 128#1388030000EC7862
(1.127087) can0 12E#0000000000000060
(1.127249) can0 174#EF7F0000916A01F8
(1.127409) can0 178#A97F0820C59501F7
(1.137076) can0 17C#00000000BB7F01F7
(1.137245) can0 290#0020000000000000
(1.137408) can0 12B#0000000000012003
(1.137535) can0 174#EF7F0000956A02D9
(1.147302) can0 178#B47F0925C7950235
(1.147464) can0 17C#00000000AF7F02CE
(1.147631) can0 290#0010000000000000
(1.157547) can0 12B#0000000000012003
(1.157668) can0 128#1388030000EC7882
(1.157814) can0 12E#0000000000000080
(1.157976) can0 12A#1208012000000000
(1.158105) can0 12C#0000000000000000
(1.158211) can0 5A0#0069200000000049
(1.167788) can0 550#0000000000000020
(1.167951) can0 300#0F00000000000000
(1.168082) can0 174#EC7F0000976A0320
(1.168228) can0 178#AF7F0000CC9503A0
(1.178068) can0 17C#00000000AF7F03D3
(1.178242) can0 450#0000000000000000
(1.178375) can0 290#0000000000000000
(1.178537) can0 12B#0000000000013003
(1.188294) can0 174#EA7F00008F6A04B4
(1.188456) can0 178#A47F0125D0950427
(1.188629) can0 17C#00000000C57F04DF
(1.188791) can0 290#0020000000000000
(1.198526) can0 12B#0000000000012003
(1.198689) can0 128#1388030000EC78A2
(1.198856) can0 12E#00000000000000A0
(1.208767) can0 174#EA7F0000816A05A0
(1.208935) can0 178#987F0239D095051E
(1.209097) can0 17C#00000000D77F05D9
(1.219003) can0 290#0020000000000000
(1.219125) can0 12B#0000000000012002
(1.219271) can0 174#EA7F00007C6A068A
(1.219433) can0 178#9E7F0321CA95062E
(1.229246) can0 17C#00000000D17F06FB
(1.229408) can0 290#0020000000000000
(1.229536) can0 12B#0000000000012003
(1.229682) can0 128#1388030000EC78C2
(1.239510) can0 12E#00000000000000C0
(1.239673) can0 174#EA7F0000816A079A
(1.239836) can0 178#A47F0420C9950797
(1.239997) can0 17C#00000000C97F07F2
(1.249732) can0 290#0010000000000000
(1.249895) can0 12B#0000000000012002
(1.250057) can0 12A#1208012000000000
(1.250178) can0 550#0000000000000040
(1.259975) can0 174#EA7F0000896A082D
(1.260136) can0 178#A47F0000C79508DA
(1.260298) can0 17C#00000000D07F08D2
(1.270218) can0 450#0000000000000000
(1.270340) can0 290#0000000000000000
(1.270494) can0 12B#0000000000012002
(1.270615) can0 128#1388030000EC7822
(1.270760) can0 12E#0000000000000020
(1.280461) can0 174#EF7F0000916A0910
(1.280630) can0 178#A47F0000C79509C7
(1.280806) can0 17C#00000000DB7F094F
(1.290717) can0 290#0030000000000000
(1.290880) can0 12B#0000000000012002
(1.291002) can0 174#F27F00008F6A0A79
(1.291148) can0 178#987F0122C5950A89
(1.291309) can0 17C#00000000E17F0A4F
(1.300947) can0 290#0010000000000000
(1.301109) can0 12B#0000000000012002
(1.301231) can0 128#1388030000EC7842
(1.301384) can0 12E#0000000000000040
(1.311190) can0 174#F87F00008D6A0B0F
(1.311351) can0 178#8A7F0220C4950B81
(1.311521) can0 17C#00000000E47F0BDB
(1.321433) can0 290#0030000000000000
(1.321607) can0 12B#0000000000013002
(1.321769) can0 174#F57F0000916A0CA8
(1.331684) can0 178#7A7F0332C4950C13
(1.331847) can0 17C#00000000D77F0C2C
(1.332010) can0 290#0030000000000000
(1.332132) can0 12B#0000000000012002
(1.341919) can0 128#1388030000EC7862
(1.342088) can0 12E#0000000000000060
(1.342250) can0 12A#1208012000000000
(1.342371) can0 12C#0000000000000000
(1.342521) can0 5A0#0069200000000069
(1.352175) can0 550#0000000000000060
(1.352342) can0 300#0F00000000000000
(1.352465) can0 174#EC7F0000946A0D0A
(1.352615) can0 178#747F0420C4950D06
(1.352784) can0 17C#00000000D07F0DBB
(1.362404) can0 450#0000000000000000
(1.362535) can0 290#0020000000000000
(1.362682) can0 12B#0000000000012002
(1.362803) can0 174#EA7F0000926A0EFB
(1.362949) can0 178#7A7F0523C2950EF5
(1.372647) can0 17C#00000000DF7F0E1A
(1.372810) can0 290#0020000000000000
(1.372932) can0 12B#0000000000012001
(1.373078) can0 128#1388030000EC7882
(1.382894) can0 12E#0000000000000080
(1.383056) can0 174#EF7F0000926A0FD2
(1.383217) can0 178#857F0632C2950F1B
(1.393133) can0 17C#00000000ED7F0F2C
(1.393296) can0 290#0020000000000000
(1.393418) can0 12B#0000000000012002
(1.393572) can0 174#F57F0000956A0032
(1.403390) can0 178#937F0721C59500B5
(1.403559) can0 17C#00000000ED7F0097
(1.403730) can0 290#0040000000000000
(1.403893) can0 12B#0000000000012002
(1.404014) can0 128#1388030000EC78A2
(1.413619) can0 12E#00000000000000A0
(1.413782) can0 174#F87F0000976A01CA
(1.413943) can0 178#907F0827C49501D5
(1.423864) can0 17C#00000000E77F0185
(1.424026) can0 290#0010000000000000
(1.424189) can0 12B#0000000000013001
(1.434105) can0 12A#1208012000000000
(1.434231) can0 550#0000000000000080
(1.434380) can0 174#F87F0000946A0261
(1.434550) can0 178#887F0000BF950298
(1.444348) can0 17C#00000000EA7F0227
(1.444519) can0 450#0000000000000000
(1.444641) can0 290#0000000000000000
(1.444788) can0 12B#0000000000012001
(1.454605) can0 128#1388030000EC78C2
(1.454766) can0 12E#00000000000000C0
(1.454928) can0 174#F27F00008D6A038F
(1.455090) can0 178#7D7F0120C1950379
(1.464837) can0 17C#00000000F47F032B
(1.464999) can0 290#0040000000000000
(1.465162) can0 12B#0000000000012001
(1.465283) can0 174#EF7F0000846A0400
(1.475077) can0 178#7D7F0000CA95048A
(1.475239) can0 17C#00000000068004B2
(1.475401) can0 290#0020000000000000
(1.485320) can0 12B#0000000000012001
(1.485441) can0 128#1388030000EC7822
(1.485594) can0 12E#0000000000000020
(1.485757) can0 174#EF7F00007C6A0599
(1.495564) can0 178#777F0112D5950509
(1.495726) can0 17C#000000001E8005BB
(1.495889) can0 290#0030000000000000
(1.505810) can0 12B#0000000000013001
(1.505972) can0 174#EF7F00007E6A06BD
(1.506133) can0 178#7D7F020FD2950618
(1.506300) can0 17C#000000002980063E
(1.516065) can0 290#0030000000000000
(1.516223) can0 12B#0000000000012001
(1.516381) can0 128#1388030000EC7842
(1.516550) can0 12E#0000000000000040
(1.526292) can0 12A#1208012000000000
(1.526417) can0 12C#0000000000000000
(1.526531) can0 5A0#0069200000000089
(1.526678) can0 550#00000000000000A0
(1.526843) can0 300#0F00000000000000
(1.526966) can0 174#F27F0000876A07F4
(1.536536) can0 178#7D7F0302C79507B1
(1.536698) can0 17C#000000001F80070E
(1.536863) can0 450#0000000000000000
(1.536985) can0 290#0000000000000000
(1.546778) can0 12B#0000000000012001
(1.546899) can0 174#F57F0000956A08DA
(1.547045) can0 178#7D7F0405BB9508B7
(1.547207) can0 17C#00000000118008BC
(1.557021) can0 290#0040000000000000
(1.557183) can0 12B#0000000000012001
(1.557305) can0 128#1388030000EC7862
(1.557450) can0 12E#0000000000000060
(1.567277) can0 174#F57F00009F6A09C8
(1.567439) can0 178#7D7F0512B795091B
(1.567608) can0 17C#000000000B8009B6
(1.567771) can0 290#0010000000000000
(1.577514) can0 12B#0000000000013000
(1.577683) can0 174#FA7F00009B6A0AB5
(1.577847) can0 178#887F0614BE950AF5
(1.587749) can0 17C#000000000E800A18
(1.587912) can0 290#0020000000000000
(1.588083) can0 12B#0000000000012000
(1.597992) can0 128#1388030000EC7882
(1.598160) can0 12E#0000000000000080
(1.598330) can0 174#FA7F0000946A0B2E
(1.608235) can0 178#937F072FBF950BC8
(1.608405) can0 17C#0000000011800B9B
(1.608583) can0 290#0040000000000000
(1.618498) can0 12B#0000000000012000
(1.618626) can0 12A#1208012000000000
(1.618731) can0 550#00000000000000C0
(1.618879) can0 174#F57F00008F6A0CB9
(1.619040) can0 178#987F0802C1950C96
(1.619202) can0 17C#0000000013800CCB
(1.628721) can0 450#0000000000000000
(1.628844) can0 290#0010000000000000
(1.628991) can0 12B#0000000000012000
(1.629112) can0 128#1388030000EC78A2
(1.629258) can0 12E#00000000000000A0
(1.638964) can0 174#F27F00008C6A0DA6
(1.639126) can0 178#937F090FC4950D12
(1.639287) can0 17C#0000000017800DD0
(1.649207) can0 290#0010000000000000
(1.649329) can0 12B#0000000000013000
(1.649479) can0 174#EF7F0000866A0ED1
(1.649648) can0 178#937F0A13C2950E79
(1.659450) can0 17C#000000001E800E74
(1.659618) can0 290#0020000000000000
(1.659780) can0 12B#0000000000012000
(1.669707) can0 128#1388030000EC78C2
(1.669868) can0 12E#00000000000000C0
(1.670031) can0 174#EF7F00007C6A0F4B
(1.670192) can0 178#937F0B03BC950F6A
(1.679936) can0 17C#0000000026800F4D
(1.680098) can0 290#0000000000000000
(1.680297) can0 12B#0000000000012000
(1.680427) can0 174#F27F0000796A0026
(1.690179) can0 178#967F0C08B9950041
(1.690345) can0 17C#000000001E8000D2
(1.690515) can0 290#0010000000000000
(1.700422) can0 12B#0000000000013000
(1.700592) can0 128#1388030000EC7822
(1.700753) can0 12E#0000000000000020
(1.710665) can0 12A#1208012000000000
(1.710786) can0 12C#0000000000000000
(1.710892) can0 5A0#00692000000000A9
(1.711039) can0 550#0000000000000020
(1.711202) can0 300#0F00000000000000
(1.711325) can0 174#F57F00007C6A013C
(1.720908) can0 178#987F0D2FBB95018A
(1.721069) can0 17C#000000000B80015E
(1.721232) can0 450#0000000000000000
(1.721361) can0 290#0030000000000000
(1.731173) can0 12B#0000000000012000
(1.731342) can0 174#F27F0000826A0214
(1.731519) can0 178#9B7F0E07C49502EC
(1.731689) can0 17C#00000000F57F02B9
(1.741400) can0 290#0030000000000000
(1.741530) can0 12B#0000000000012000
(1.741643) can0 128#1388030000EC7842
(1.741788) can0 12E#0000000000000040
(1.741959) can0 174#EF7F0000896A03D6
(1.751645) can0 178#9B7F0F0DD095033E
(1.751807) can0 17C#00000000EC7F033F
(1.751977) can0 290#0010000000000000
(1.761883) can0 12B#0000000000013000
(1.762052) can0 174#EF7F0000866A0403
(1.762214) can0 178#907F0002D79504C6
(1.772123) can0 17C#00000000ED7F04E3
(1.772285) can0 290#0020000000000000
(1.772448) can0 12B#0000000000012000
(1.782379) can0 128#1388030000EC7862
(1.782548) can0 12E#0000000000000060
(1.782711) can0 174#EF7F0000826A0518
(1.782873) can0 178#827F0108DD950506
(1.792609) can0 17C#00000000F57F05EA
(1.792771) can0 290#0030000000000000
(1.792934) can0 12B#0000000000012000
(1.793055) can0 12A#1208012000000000
(1.793160) can0 550#0000000000000040
(1.802859) can0 174#EF7F0000826A063F
(1.803021) can0 178#7A7F0000DA950626
(1.803190) can0 17C#00000000FA7F064B
(1.813094) can0 450#0000000000000000
(1.813217) can0 290#0010000000000000
(1.813364) can0 12B#0000000000013000
(1.813534) can0 128#1388030000EC7882
(1.823337) can0 12E#0000000000000080
(1.823506) can0 174#EF7F0000826A0722
(1.823667) can0 178#7D7F0128CC950714
(1.833594) can0 17C#00000000F57F07D0
(1.833756) can0 290#0010000000000000
(1.833878) can0 12B#0000000000012FFF
(1.834024) can0 174#EF7F0000826A0899
(1.834186) can0 178#887F0220BF9508D4
(1.843824) can0 17C#00000000E57F0873
(1.843986) can0 290#0010000000000000
(1.844108) can0 12B#0000000000013000
(1.844255) can0 128#1388030000EC78A2
(1.854102) can0 12E#00000000000000A0
(1.854276) can0 174#EF7F00008C6A098D
(1.854438) can0 178#937F0321BF9509B2
(1.864309) can0 17C#00000000CB7F0957
(1.864479) can0 290#0040000000000000
(1.864642) can0 12B#0000000000012FFF
(1.874554) can0 174#EF7F00009B6A0A38
(1.874715) can0 178#907F0423CA950A9F
(1.874877) can0 17C#00000000B87F0AB4
(1.884798) can0 290#0030000000000000
(1.884961) can0 12B#0000000000012FFF
(1.885086) can0 128#1388030000EC78C2
(1.885234) can0 12E#00000000000000C0
(1.885395) can0 12A#1208012000000000
(1.885524) can0 12C#0000000000000000
(1.885630) can0 5A0#00692000000000C9
(1.895054) can0 550#0000000000000060
(1.895217) can0 300#0F00000000000000
(1.895340) can0 174#EA7F0000A56A0B30
(1.895494) can0 178#7D7F0523CF950B97
(1.905281) can0 17C#00000000BE7F0BAC
(1.905444) can0 450#0000000000000000
(1.905574) can0 290#0050000000000000
(1.905721) can0 12B#0000000000013FFF
(1.915525) can0 174#E77F00009F6A0CA2
(1.915687) can0 178#667F0622CC950CE7
(1.915851) can0 17C#00000000C67F0CBB
(1.925767) can0 290#0010000000000000
(1.925930) can0 12B#0000000000012FFF
(1.926092) can0 128#1388030000EC7822
(1.936010) can0 12E#0000000000000020
(1.936172) can0 174#EC7F00008D6A0D91
(1.936334) can0 178#617F0724C4950D7B
(1.946266) can0 17C#00000000CB7F0D23
(1.946429) can0 290#0040000000000000
(1.946600) can0 12B#0000000000012FFF
(1.946721) can0 174#F87F0000826A0EE0
(1.946867) can0 178#617F0823C4950ED4
(1.956502) can0 17C#00000000DB7F0E1C
(1.956671) can0 290#0010000000000000
(1.956858) can0 12B#0000000000013FFF
(1.966739) can0 128#1388030000EC7842
(1.966900) can0 12E#0000000000000040
(1.967062) can0 174#FA7F00007E6A0FC5
(1.976982) can0 178#637F0920D5950F34
(1.977143) can0 17C#00000000E77F0F23
(1.977305) can0 290#0030000000000000
(1.987225) can0 12B#0000000000012FFF
(1.987387) can0 12A#1208012000000000
(1.987516) can0 550#0000000000000080
(1.987663) can0 174#F87F0000826A0046
(1.997489) can0 178#667F0A21E8950035
(1.997651) can0 17C#00000000E77F0098
(1.997813) can0 450#0000000000000000
(1.997936) can0 290#0030000000000000
(1.998049) can0 12B#0000000000013FFF
(1.998195) can0 128#1388030000EC7862
(2.007711) can0 12E#0000000000000060
(2.007872) can0 174#F27F00008C6A013A
(2.008041) can0 178#667F0B29EE9501DB
(2.017953) can0 17C#00000000E17F0180
(2.018123) can0 290#0000000000000000
(2.018292) can0 12B#0000000000012FFE
(2.028196) can0 174#EF7F0000946A0256
(2.028401) can0 178#617F0000E69502FC
(2.028594) can0 17C#00000000DB7F0280
(2.038439) can0 290#0020000000000000
(2.038616) can0 12B#0000000000012FFF
(2.038778) can0 128#1388030000EC7882
(2.048696) can0 12E#0000000000000080
(2.048863) can0 174#F57F00009A6A0393
(2.049024) can0 178#587F0000D795031F
(2.049185) can0 17C#00000000DF7F039B
(2.058925) can0 290#0020000000000000
(2.059047) can0 12B#0000000000013FFE
(2.059193) can0 174#FA7F00009D6A0416
(2.059354) can0 178#557F00FFCF950418
(2.069168) can0 17C#00000000EA7F0469
(2.069330) can0 290#0020000000000000
(2.069452) can0 12B#0000000000012FFE
(2.069606) can0 128#1388030000EC78A2
(2.079411) can0 12E#00000000000000A0
(2.079582) can0 12A#1208012000000000
(2.079702) can0 12C#0000000000000000
(2.079808) can0 5A0#0069200000000029
(2.079955) can0 550#00000000000000A0
(2.089654) can0 300#0F00000000000000
(2.089776) can0 174#FA7F0000A56A052F
(2.089922) can0 178#537F0000CD950573
(2.090083) can0 17C#00000000F87F056F
(2.099898) can0 450#0000000000000000
(2.100020) can0 290#0020000000000000
(2.100126) can0 12B#0000000000013FFE
(2.100272) can0 174#FA7F0000AB6A0601
(2.100434) can0 178#4D7F0120CA950646
(2.110154) can0 17C#0000000008800681
(2.110316) can0 290#0000000000000000
(2.110496) can0 12B#0000000000012FFE
(2.110658) can0 128#1388030000EC78C2
(2.120383) can0 12E#00000000000000C0
(2.120553) can0 174#F57F0000A56A0749
(2.120715) can0 178#4A7F0222C4950745
(2.130626) can0 17C#000000000B800710
(2.130788) can0 290#0000000000000000
(2.130911) can0 12B#0000000000013FFE
(2.131057) can0 174#F57F0000946A0855
(2.140871) can0 178#477F0326C2950839
(2.141032) can0 17C#00000000058008A2
(2.141195) can0 290#0030000000000000
(2.151112) can0 12B#0000000000012FFE
(2.151274) can0 128#1388030000EC7822
(2.151443) can0 12E#0000000000000020
(2.161368) can0 174#F27F0000866A09DD
(2.161546) can0 178#3F7F0425C495094A
(2.161715) can0 17C#00000000038009BA
(2.161878) can0 290#0010000000000000
(2.171598) can0 12B#0000000000013FFD
(2.171766) can0 12A#1208012000000000
(2.171887) can0 550#00000000000000C0
(2.172035) can0 174#F27F00007F6A0AF1
(2.181847) can0 178#347F0520CA950AE8
(2.182017) can0 17C#000000000D800A94
(2.182179) can0 450#0000000000000000
(2.182301) can0 290#0020000000000000
(2.192084) can0 12B#0000000000012FFE
(2.192252) can0 128#1388030000EC7842
(2.192413) can0 12E#0000000000000040
(2.202327) can0 174#FA7F0000866A0B35
(2.202545) can0 178#2E7F0621CF950B8E
(2.202738) can0 17C#0000000017800B9E
(2.212584) can0 290#0010000000000000
(2.212747) can0 12B#0000000000013FFD
(2.212909) can0 174#008000008F6A0C2D
(2.213070) can0 178#2E7F0721D0950C29
(2.222818) can0 17C#0000000011800CC8
(2.222980) can0 290#0030000000000000
(2.223143) can0 12B#0000000000012FFE
(2.233055) can0 128#1388030000EC7862
(2.233216) can0 12E#0000000000000060
(2.233379) can0 174#03800000956A0DC0
(2.243298) can0 178#377F0820D0950DE3
(2.243460) can0 17C#0000000009800DC1
(2.243627) can0 290#0020000000000000
(2.253543) can0 12B#0000000000013FFD
(2.253713) can0 174#FA7F0000956A0EC8
(2.253874) can0 178#3F7F0925C7950E3D
(2.263787) can0 17C#0000000017800EF7
(2.263949) can0 290#0010000000000000
(2.264112) can0 12B#0000000000012FFD
(2.264272) can0 128#1388030000EC7882
(2.274043) can0 12E#0000000000000080
(2.274206) can0 12A#1208012000000000
(2.274327) can0 12C#0000000000000000
(2.274437) can0 5A0#0069200000000049
(2.274614) can0 550#0000000000000020
(2.284270) can0 300#0F00000000000000
(2.284393) can0 174#EF7F00008D6A0F4C
(2.284546) can0 178#4A7F0A29BF950F34
(2.284707) can0 17C#000000003F800FD6
(2.294515) can0 450#0000000000000000
(2.294637) can0 290#0000000000000000
(2.294784) can0 12B#0000000000013FFD
(2.294946) can0 174#EC7F0000846A0093
(2.304756) can0 178#4A7F0000BE9500E8
(2.304918) can0 17C#0000000067800019
(2.305080) can0 290#0010000000000000
(2.314999) can0 12B#0000000000012FFD
(2.315161) can0 128#1388030000EC78A2
(2.315322) can0 12E#00000000000000A0
(2.325256) can0 174#EC7F00007F6A0186
(2.325417) can0 178#4A7F0120C2950197
(2.325586) can0 17C#000000007880019A
(2.325749) can0 290#0020000000000000
(2.335493) can0 12B#0000000000013FFC
(2.335655) can0 174#F57F00007F6A0297
(2.335817) can0 178#557F0000C99502F5
(2.345728) can0 17C#000000007780023B
(2.345890) can0 290#0000000000000000
(2.346054) can0 12B#0000000000012FFD
(2.355971) can0 128#1388030000EC78C2
(2.356132) can0 12E#00000000000000C0
(2.356294) can0 174#FA7F0000866A03DD
(2.366214) can0 178#667F0120CA950375
(2.366383) can0 17C#0000000071800323
(2.366588) can0 290#0030000000000000
(2.376470) can0 12B#0000000000013FFD
(2.376640) can0 12A#1208012000000000
(2.376761) can0 550#0000000000000040
(2.376909) can0 174#FA7F00008C6A0481
(2.377070) can0 178#777F0221C995046D
(2.386700) can0 17C#0000000075800476
(2.386863) can0 450#0000000000000000
(2.387021) can0 290#0010000000000000
(2.387180) can0 12B#0000000000012FFC
(2.396943) can0 128#1388030000EC7822
(2.397108) can0 12E#0000000000000020
(2.397270) can0 174#F57F0000926A05D1
(2.407186) can0 178#7D7F0324C79505A8
(2.407347) can0 17C#0000000082800569
(2.407518) can0 290#0050000000000000
(2.417429) can0 12B#0000000000013FFC
(2.417598) can0 174#F57F0000946A06F3
(2.417760) can0 178#7D7F042FC495062E
(2.427685) can0 17C#000000008A800642
(2.427850) can0 290#0020000000000000
(2.428013) can0 12B#0000000000013FFC
(2.428141) can0 128#1388030000EC7842
(2.428294) can0 12E#0000000000000040
(2.437915) can0 174#F57F0000926A07EB
(2.438084) can0 178#7D7F0512BB9507B7
(2.438245) can0 17C#000000008880075C
(2.448157) can0 290#0030000000000000
(2.448328) can0 12B#0000000000012FFC
(2.448507) can0 174#F57F00008F6A08CD
(2.458400) can0 178#7A7F0624B3950836
(2.458578) can0 17C#00000000968008F6
(2.458740) can0 290#0010000000000000
(2.468643) can0 12B#0000000000013FFC
(2.468805) can0 128#1388030000EC7862
(2.468966) can0 12E#0000000000000060
(2.478889) can0 12A#1208012000000000
(2.479010) can0 12C#0000000000000000
(2.479116) can0 5A0#0069200000000069
(2.479263) can0 550#0000000000000060
(2.479426) can0 300#0F00000000000000
(2.479554) can0 174#EF7F00008D6A0902
(2.489143) can0 178#7F7F0726B3950952
(2.489304) can0 17C#00000000AA8009C9
(2.489467) can0 450#0000000000000000
(2.489596) can0 290#0030000000000000
(2.489743) can0 12B#0000000000012FFB
(2.499372) can0 174#EA7F00008F6A0A12
(2.499540) can0 178#8D7F0820B6950AFA
(2.499701) can0 17C#00000000AF800A67
(2.509615) can0 290#0050000000000000
(2.509778) can0 12B#0000000000013FFC
(2.509940) can0 128#1388030000EC7882
(2.519860) can0 12E#0000000000000080
(2.520022) can0 174#EA7F00008C6A0B83
(2.520184) can0 178#9E7F0925B7950B8F
(2.530101) can0 17C#000000009C800BDE
(2.530270) can0 290#0020000000000000
(2.530434) can0 12B#0000000000013FFB
(2.540358) can0 174#EC7F00008F6A0C8F
(2.540528) can0 178#A47F0000B7950CE6
(2.540689) can0 17C#000000008E800C96
(2.540856) can0 290#0000000000000000
(2.550587) can0 12B#0000000000012FFB
(2.550749) can0 128#1388030000EC78A2
(2.550910) can0 12E#00000000000000A0
(2.560832) can0 174#EF7F0000926A0DE8
(2.560993) can0 178#A67F0125BB950DB8
(2.561155) can0 17C#0000000090800D9A
(2.571073) can0 290#0000000000000000
(2.571195) can0 12B#0000000000013FFB
(2.571341) can0 12A#1208012000000000
(2.571511) can0 174#EF7F0000916A0E43
(2.571683) can0 178#A97F0239BE950E03
(2.581322) can0 17C#0000000094800EBB
(2.581488) can0 174#F57F0000926A0F03
(2.581659) can0 178#AC7F0321BE950FF9
(2.591574) can0 17C#000000009E800FA9
(2.591743) can0 174#F57F0000976A0031
(2.591904) can0 178#BA7F0420BB950037
(2.592066) can0 17C#00000000A6800036
(2.601808) can0 174#F27F0000956A01A1
(2.601970) can0 178#D07F0000B7950106
(2.602139) can0 17C#000000009E80010F
(2.612045) can0 290#0010000000000000
(2.612215) can0 12B#0000000000012FFB
(2.612377) can0 174#EF7F00008D6A02CD
(2.622288) can0 178#D97F0000B39502A8
(2.622449) can0 17C#000000008B8002B9
(2.622617) can0 290#0020000000000000
(2.632532) can0 12B#0000000000013FFB
(2.632694) can0 128#1388030000EC7842
(2.632861) can0 300#0F00000000000000
(2.632983) can0 174#EC7F0000896A0331
(2.642776) can0 178#D67F0122B99503E1
(2.642938) can0 17C#00000000788003A0
(2.643100) can0 174#EA7F00008C6A0438
(2.643260) can0 178#D37F0220C49504D2
(2.653033) can0 17C#000000006F800461
(2.653195) can0 174#E77F0000926A05D2
(2.653356) can0 178#D37F0332D09505B9
(2.663260) can0 17C#000000007580056B
(2.663422) can0 174#E77F0000976A067C
(2.663591) can0 178#D97F0420D29506FC
(2.673510) can0 17C#000000007F800643
(2.673673) can0 174#EF7F0000956A07B0
(2.673836) can0 178#E47F0523CA950715
(2.683745) can0 17C#000000007F80075E
(2.683908) can0 290#0040000000000000
(2.684070) can0 12B#0000000000012FFB
(2.693988) can0 174#EF7F0000916A080D
(2.694150) can0 178#F57F0632C79508C9
(2.694312) can0 17C#000000006D8008FE
(2.704245) can0 174#EF7F00008C6A098D
(2.704407) can0 178#00800721C59509B6
(2.704575) can0 17C#000000004E80095F
(2.704738) can0 174#EF7F00008C6A0AAA
(2.714479) can0 178#00800827C1950A82
(2.714641) can0 17C#0000000032800A3A
(2.714804) can0 174#EF7F00008C6A0BB7
(2.724717) can0 178#F57F0000BE950B0C
(2.724879) can0 17C#0000000027800BB6
(2.725042) can0 290#0020000000000000
(2.734960) can0 174#F27F0000876A0C3B
(2.735122) can0 178#DC7F0120BB950C16
(2.735283) can0 17C#0000000026800C6A
(2.745203) can0 290#0020000000000000
(2.745325) can0 12B#0000000000013FFB
(2.745479) can0 128#1388030000EC7822
(2.745640) can0 174#F57F0000826A0D21
(2.755460) can0 178#CB7F0000BC950D96
(2.755626) can0 17C#0000000021800DFD
(2.755789) can0 174#F57F0000896A0E86
(2.755950) can0 178#C57F0112BB950E52
(2.765689) can0 17C#000000001C800E77
(2.765856) can0 178#C27F020FBC950F9F
(2.766053) can0 17C#0000000026800F4D
(2.775932) can0 290#0030000000000000
(2.776099) can0 17C#00000000328000E8
(2.776261) can0 290#0020000000000000
(2.786175) can0 12B#0000000000013FFA
(2.786343) can0 290#0020000000000000
(2.786466) can0 12B#0000000000013FFB
(2.786619) can0 12A#1228012000000000
(2.796418) can0 550#0000000000000040
(2.796588) can0 290#0010000000000000
(2.796751) can0 12B#0000000000012FFA
(2.806674) can0 128#1388030000EC7882
(2.806837) can0 12E#0000000000000080
(2.806999) can0 290#0000000000000000
(2.807162) can0 12B#0000000000013FFB
(2.816904) can0 174#EA7F0000896A04B1
(2.817065) can0 178#DE7F072FC195040A
(2.817227) can0 290#0030000000000000
(2.827147) can0 12B#0000000000013FFA
(2.827309) can0 128#1388030000EC78A2
(2.827470) can0 12E#00000000000000A0
(2.837390) can0 174#EF7F0000826A0518
(2.837560) can0 290#0030000000000000
(2.837682) can0 12B#0000000000013FFA
(2.837787) can0 174#EF7F00007E6A06BD
(2.837933) can0 178#D67F090FC79506BB
(2.847633) can0 290#0030000000000000
(2.847755) can0 12B#0000000000012FFB
(2.847901) can0 128#1388030000EC78C2
(2.848070) can0 12E#00000000000000C0
(2.857878) can0 12A#1228012000000000
(2.857998) can0 290#0020000000000000
(2.858153) can0 12B#0000000000013FFA
(2.858328) can0 174#EF7F0000796A0891
(2.868138) can0 178#CE7F0B03D595086B
(2.868307) can0 290#0010000000000000
(2.868470) can0 12B#0000000000013FFA
(2.868607) can0 128#1388030000EC7822
(2.868752) can0 290#0030000000000000
(2.878361) can0 12B#0000000000013FFA
(2.878488) can0 174#EF7F0000866A0AA5
(2.878641) can0 178#C07F0D2FDB950AA0
(2.878802) can0 290#0030000000000000
(2.878925) can0 12B#0000000000013FFA
(2.879030) can0 128#1388030000EC7842
(2.888608) can0 290#0030000000000000
(2.888730) can0 12B#0000000000013FFA
(2.888836) can0 12A#1228012000000000
(2.888941) can0 290#0020000000000000
(2.889088) can0 12B#0000000000013FFA
(2.889209) can0 128#1388030000EC7862
(2.889355) can0 12E#0000000000000060
(2.898849) can0 12B#0000000000012FFA
(2.899011) can0 174#FA7F00008F6A0EDF
(2.899173) can0 178#A47F0108C4950EEE
(2.909090) can0 17C#000000003D800EC8
(2.909253) can0 12E#0000000000000080
(2.909415) can0 174#F57F00008C6A0F12
(2.919347) can0 178#987F0000C4950F68
(2.919517) can0 17C#0000000045800F91
(2.919679) can0 174#F57F0000896A0020
(2.919849) can0 178#9B7F0128C7950004
(2.929576) can0 17C#000000004D800026
(2.929739) can0 12C#0000000000000000
(2.929896) can0 5A0#0069200000000029
(2.930055) can0 550#00000000000000A0
(2.939820) can0 174#EF7F00008A6A0247
(2.939986) can0 178#BA7F0321C59502DA
(2.940147) can0 17C#000000005C80028B
(2.950062) can0 290#0030000000000000
(2.950225) can0 174#EF7F00008A6A035A
(2.950387) can0 178#BA7F0423C4950364
(2.960305) can0 17C#000000006C8003BE
(2.960467) can0 174#EF7F00008D6A0483
(2.960635) can0 178#B27F0523C7950403
(2.970563) can0 17C#000000007A8004F0
(2.970725) can0 174#EF7F00008D6A059E
(2.970887) can0 178#A47F0622D09505C5
(2.971049) can0 17C#000000007B800562
(2.980791) can0 550#00000000000000C0
(2.980954) can0 174#EF7F00008A6A0633
(2.981116) can0 178#9E7F0724DB9506DF
(2.991034) can0 174#EF7F0000866A0724
(2.991196) can0 178#A47F0823DD9507F1
(2.991357) can0 17C#0000000075800751
(3.001277) can0 290#0000000000000000
(3.001447) can0 174#EF7F0000826A0899
(3.001622) can0 178#A97F0920D49508FF
(3.011521) can0 17C#00000000758008EA
(3.011697) can0 290#0030000000000000
(3.011887) can0 12B#0000000000013FFA
(3.021766) can0 174#EA7F0000846A09B5
(3.021933) can0 178#AF7F0A21CA950903
(3.022103) can0 17C#0000000074800978
(3.022263) can0 290#0020000000000000
(3.032022) can0 174#EA7F00008D6A0A11
(3.032183) can0 178#A67F0B29C9950AD1
(3.032344) can0 17C#0000000083800A5D
(3.042257) can0 290#0030000000000000
(3.042419) can0 300#0F00000000000000
(3.042547) can0 174#E47F0000986A0B9C
(3.042693) can0 178#9E7F0000CF950B4F
(3.052498) can0 174#DE7F0000956A0CF4
(3.052659) can0 178#A47F0000D4950C3A
(3.052826) can0 17C#00000000A4800CA9
(3.062735) can0 174#E47F00008C6A0DCC
(3.062896) can0 178#BA7F00FFCD950DA2
(3.063057) can0 17C#0000000098800D96
(3.072978) can0 290#0000000000000000
(3.073140) can0 174#EF7F0000896A0E57
(3.073301) can0 178#DC7F0000C2950EC7
(3.083234) can0 17C#0000000088800EA9
(3.083396) can0 174#F27F00008A6A0F99
(3.083565) can0 178#EC7F0120BC950F6D
(3.083726) can0 17C#000000007D800FB5
(3.093464) can0 174#F57F00008C6A00A9
(3.093630) can0 178#E77F0222B99500F3
(3.093791) can0 17C#000000007480008D
(3.103707) can0 174#F57F0000866A01BB
(3.103883) can0 178#D67F0326BB950142
(3.104045) can0 17C#000000007780011C
(3.113949) can0 174#F57F0000826A029A
(3.114111) can0 178#D37F0425C19502A7
(3.114272) can0 17C#000000008680023C
(3.124192) can0 290#0010000000000000
(3.124355) can0 12B#0000000000013FF9
(3.124525) can0 174#EF7F0000866A0350
(3.134449) can0 178#DE7F0520C19503E5
(3.134652) can0 17C#00000000918003B3
(3.134828) can0 290#0030000000000000
(3.134991) can0 174#EA7F00008D6A04B7
(3.144678) can0 178#F27F0621BF950400
(3.144846) can0 17C#000000009080046F
(3.145008) can0 300#0F00000000000000
(3.145131) can0 174#EF7F0000956A058A
(3.154921) can0 178#FA7F0721BF9505A5
(3.155083) can0 174#F87F00009A6A061C
(3.155244) can0 178#FD7F0820CA95062C
(3.165164) can0 17C#000000008E800644
(3.165326) can0 174#F57F00009A6A07E7
(3.165494) can0 178#03800925D79507B4
(3.175407) can0 17C#000000008B8007D0
(3.175576) can0 290#0000000000000000
(3.175739) can0 12B#0000000000013FF9
(3.175860) can0 174#F57F0000986A085F
(3.185664) can0 178#06800A29DB95085D
(3.185828) can0 17C#000000008E8008E2
(3.185997) can0 178#00800000D49509FD
(3.186159) can0 17C#00000000948009E8
(3.195894) can0 290#0010000000000000
(3.196057) can0 17C#0000000094800ACF
(3.196219) can0 450#0000000000000000
(3.196342) can0 290#0040000000000000
(3.206136) can0 290#0020000000000000
(3.206299) can0 12B#0000000000013FF9
(3.206420) can0 174#EF7F00008C6A0CE4
(3.206574) can0 290#0020000000000000
(3.206696) can0 12B#0000000000013FF9
(3.206801) can0 128#1388030000EC7822
(3.216379) can0 12E#0000000000000020
(3.216549) can0 174#EF7F00008F6A0D75
(3.216711) can0 178#1F800221BC950D33
(3.226622) can0 290#0050000000000000
(3.226785) can0 12B#0000000000013FF9
(3.226906) can0 174#EF7F00008C6A0EDE
(3.227051) can0 178#24800324B9950EC7
(3.236867) can0 17C#0000000062800E36
(3.237029) can0 290#0010000000000000
(3.237192) can0 12B#0000000000013FF9
(3.237313) can0 128#1388030000EC7842
(3.247121) can0 290#0060000000000000
(3.247284) can0 12B#0000000000013FF9
(3.247405) can0 174#EF7F0000876A00F8
(3.247559) can0 290#0010000000000000
(3.247722) can0 12B#0000000000013FF9
(3.247848) can0 128#1388030000EC7862
(3.257351) can0 290#0010000000000000
(3.257479) can0 12B#0000000000013FF9
(3.257585) can0 174#EF7F0000976A02DA
(3.257730) can0 290#0010000000000000
(3.257853) can0 12B#0000000000013FF9
(3.257958) can0 128#1388030000EC7882
(3.258111) can0 12E#0000000000000080
(3.267594) can0 290#0020000000000000
(3.267756) can0 12B#0000000000013FF9
(3.267878) can0 12A#1228012000000000
(3.267983) can0 290#0040000000000000
(3.268136) can0 12B#0000000000013FF9
(3.268264) can0 128#1388030000EC78A2
(3.277839) can0 290#0030000000000000
(3.278002) can0 12B#0000000000013FF9
(3.278131) can0 174#EA7F00008F6A068E
(3.278328) can0 178#F87F0125C5950650
(3.288093) can0 17C#000000006F80065B
(3.288266) can0 12B#0000000000013FF9
(3.288387) can0 128#1388030000EC78C2
(3.288548) can0 12E#00000000000000C0
(3.298342) can0 12B#0000000000013FF9
(3.298463) can0 174#EF7F00008C6A0890
(3.298622) can0 178#11800321BE950832
(3.298784) can0 17C#00000000778008E9
(3.298946) can0 12E#0000000000000020
(3.308572) can0 12A#1228012000000000
(3.308698) can0 12C#0000000000000000
(3.308820) can0 174#EF7F0000846A0AA6
(3.308970) can0 178#16800000BC950AEC
(3.309132) can0 17C#0000000059800AEA
(3.318810) can0 174#EF7F0000876A0B37
(3.318971) can0 178#11800000C4950B3B
(3.319133) can0 17C#0000000059800BF7
(3.329051) can0 174#EF7F00008C6A0CE4
(3.329213) can0 178#00800122C9950C0E
(3.329375) can0 17C#0000000064800C09
(3.339294) can0 290#0010000000000000
(3.339457) can0 174#EF7F00008F6A0D75
(3.339626) can0 178#F57F0220C7950D17
(3.349552) can0 17C#000000006D800D97
(3.349714) can0 290#0010000000000000
(3.349837) can0 550#0000000000000040
(3.349984) can0 174#F27F0000916A0E1C
(3.350146) can0 178#F87F0332C1950EBB
(3.359780) can0 174#F57F0000916A0F8F
(3.359942) can0 178#08800420B4950FCE
(3.360104) can0 17C#0000000069800FAB
(3.370023) can0 174#F57F00008F6A0025
(3.370185) can0 178#19800523A99500DC
(3.370346) can0 17C#0000000051800034
(3.380275) can0 174#F57F00008D6A013B
(3.380437) can0 178#19800632A99501C7
(3.380603) can0 17C#000000003A8001F9
(3.390517) can0 174#F57F00008C6A0293
(3.390678) can0 178#11800721B495025A
(3.390842) can0 17C#0000000035800258
(3.400755) can0 300#0F00000000000000
(3.400878) can0 174#F57F0000896A0307
(3.401031) can0 178#0E800827BE9503B8
(3.401209) can0 17C#0000000040800384
(3.401377) can0 174#F57F0000826A04D4
(3.411011) can0 178#06800000C195043E
(3.411173) can0 17C#0000000049800454
(3.411335) can0 174#F57F0000826A05C9
(3.421238) can0 178#00800120C4950559
(3.421408) can0 17C#000000004E8005C3
(3.421583) can0 174#FA7F00007F6A06BF
(3.431489) can0 178#08800000C495068C
(3.431657) can0 17C#00000000588006F9
(3.431826) can0 174#FA7F00007C6A072E
(3.441724) can0 178#16800112C4950741
(3.441894) can0 17C#00000000668007C5
(3.442062) can0 290#0010000000000000
(3.442184) can0 174#FA7F00007F6A0819
(3.451967) can0 178#1680020FC495082E
(3.452129) can0 17C#0000000074800865
(3.452291) can0 450#0000000000000000
(3.452414) can0 174#FA7F0000896A0989
(3.462223) can0 178#0E800302C79509F1
(3.462428) can0 17C#00000000808009F6
(3.462607) can0 174#F87F0000926A0A8C
(3.462769) can0 178#06800405C4950A77
(3.472453) can0 17C#000000008B800A51
(3.472627) can0 174#F57F0000926A0B77
(3.472788) can0 178#0B800512BF950BFF
(3.482696) can0 17C#0000000093800B58
(3.482863) can0 290#0030000000000000
(3.483026) can0 174#EF7F0000926A0CF5
(3.492939) can0 178#11800614BE950C25
(3.493107) can0 17C#0000000093800C0B
(3.493270) can0 300#0F00000000000000
(3.493393) can0 174#EC7F0000976A0D86
(3.503182) can0 178#0E80072FC2950DBC
(3.503343) can0 17C#0000000082800D81
(3.503510) can0 174#EA7F0000976A0E72
(3.513438) can0 178#11800802CC950E0E
(3.513608) can0 17C#000000006C800E3F
(3.513770) can0 174#EF7F0000926A0FD2
(3.513932) can0 178#1C80090FD4950FC4
(3.523668) can0 17C#000000005C800F0A
(3.523831) can0 174#F27F0000896A00AE
(3.523992) can0 178#27800A13D09500D3
(3.533910) can0 17C#000000005B80003B
(3.534073) can0 290#0020000000000000
(3.534235) can0 12B#0000000000013FF9
(3.534357) can0 174#F57F0000826A01BD
(3.544153) can0 178#24800B03CC950174
(3.544315) can0 17C#000000006280018D
(3.544485) can0 290#0040000000000000
(3.554396) can0 174#F57F0000846A029F
(3.554566) can0 178#1C800C08C79502FA
(3.554728) can0 17C#00000000728002B2
(3.564653) can0 450#0000000000000000
(3.564776) can0 178#19800D2FC495038B
(3.564921) can0 17C#000000007D800329
(3.565084) can0 290#0020000000000000
(3.565246) can0 12B#0000000000013FF9
(3.565372) can0 174#F57F0000956A0446
(3.574885) can0 17C#00000000788004F3
(3.575047) can0 290#0020000000000000
(3.575169) can0 12B#0000000000013FF9
(3.575274) can0 128#1388030000EC7862
(3.575419) can0 12E#0000000000000060
(3.585125) can0 174#F57F00009A6A05DD
(3.585287) can0 290#0010000000000000
(3.585450) can0 12B#0000000000013FF9
(3.585576) can0 174#EF7F0000986A0628
(3.595368) can0 178#1F800002CF95061C
(3.595538) can0 17C#000000006F80065B
(3.595700) can0 290#0040000000000000
(3.605611) can0 12B#0000000000013FF9
(3.605732) can0 128#1388030000EC7882
(3.605878) can0 12E#0000000000000080
(3.606040) can0 12A#1228012000000000
(3.606161) can0 290#0020000000000000
(3.615856) can0 12B#0000000000013FF9
(3.615977) can0 174#EA7F00008F6A0828
(3.616123) can0 290#0050000000000000
(3.616286) can0 12B#0000000000013FFA
(3.626111) can0 128#1388030000EC78A2
(3.626272) can0 12E#00000000000000A0
(3.626434) can0 290#0020000000000000
(3.626604) can0 12B#0000000000013FF9
(3.636376) can0 174#EF7F00008A6A0AAF
(3.636557) can0 178#30800220D0950A94
(3.636726) can0 290#0040000000000000
(3.646583) can0 12B#0000000000013FF9
(3.646708) can0 128#1388030000EC78C2
(3.646858) can0 290#0020000000000000
(3.647021) can0 12B#0000000000013FF9
(3.647142) can0 12A#1228012000000000
(3.647247) can0 290#0010000000000000
(3.656827) can0 12B#0000000000013FFA
(3.656989) can0 128#1388030000EC7822
(3.657150) can0 290#0010000000000000
(3.657272) can0 12B#0000000000013FF9
(3.667069) can0 174#F87F0000796A0EE8
(3.667231) can0 178#16800622C1950E59
(3.667392) can0 290#0010000000000000
(3.667522) can0 12B#0000000000013FF9
(3.667627) can0 128#1388030000EC7842
(3.677325) can0 290#0040000000000000
(3.677494) can0 12B#0000000000013FFA
(3.677656) can0 174#EF7F0000896A00F1
(3.677819) can0 290#0040000000000000
(3.677941) can0 12B#0000000000013FF9
(3.687556) can0 128#1388030000EC7862
(3.687717) can0 290#0020000000000000
(3.687880) can0 12B#0000000000013FFA
(3.697798) can0 174#F57F00008C6A0293
(3.697959) can0 128#1388030000EC7882
(3.698128) can0 12E#0000000000000080
(3.708047) can0 174#F57F0000896A0307
(3.708215) can0 178#22800B29D095037E
(3.708406) can0 174#FA7F0000826A0488
(3.718291) can0 178#22800000D09504AF
(3.718453) can0 17C#000000005980044C
(3.718629) can0 174#FA7F0000826A0595
(3.728549) can0 178#1F800000CC950590
(3.728710) can0 17C#00000000668005FF
(3.728873) can0 290#0030000000000000
(3.729036) can0 550#0000000000000080
(3.738770) can0 174#F87F0000896A0688
(3.738931) can0 178#148000FFC59506A7
(3.739093) can0 174#EF7F0000926A073A
(3.749013) can0 178#08800000C2950794
(3.749175) can0 17C#000000006D800745
(3.749337) can0 174#EC7F0000946A0863
(3.759256) can0 178#03800120BF9508F7
(3.759417) can0 17C#00000000758008EA
(3.759587) can0 174#EA7F00008F6A0935
(3.769506) can0 178#06800222BC9509CB
(3.769668) can0 17C#00000000718009F1
(3.769831) can0 290#0030000000000000
(3.769953) can0 174#EA7F0000876A0A1E
(3.779744) can0 178#11800326BC950AFF
(3.779906) can0 17C#0000000062800A42
(3.780068) can0 550#00000000000000A0
(3.780229) can0 300#0F00000000000000
(3.780352) can0 174#EA7F0000826A0B8A
(3.790000) can0 174#EA7F00007F6A0CD4
(3.790162) can0 178#11800520BE950CBA
(3.790323) can0 17C#000000005B800CA7
(3.800227) can0 174#EF7F0000796A0DF8
(3.800389) can0 178#03800621C4950DC0
(3.800559) can0 17C#000000005B800DBA
(3.810470) can0 174#FA7F0000796A0E52
(3.810675) can0 178#FD7F0721CD950EAF
(3.810851) can0 17C#0000000059800E9E
(3.820713) can0 290#0010000000000000
(3.820880) can0 174#008000007E6A0F0D
(3.821042) can0 178#00800820CD950F15
(3.830956) can0 17C#0000000059800F83
(3.831119) can0 290#0000000000000000
(3.831282) can0 174#00800000876A00BD
(3.841213) can0 178#00800925CD950017
(3.841382) can0 17C#0000000059800038
(3.841561) can0 174#FA7F00008F6A0164
(3.841722) can0 178#00800A29D09501FB
(3.851447) can0 17C#000000005380012A
(3.851617) can0 174#F57F0000956A0208
(3.851787) can0 178#FD7F0000D2950271
(3.861685) can0 17C#000000004980021A
(3.861856) can0 290#0030000000000000
(3.862027) can0 174#F57F0000976A0316
(3.871928) can0 178#F57F0120CF950303
(3.872090) can0 17C#0000000049800307
(3.872252) can0 290#0030000000000000
(3.872374) can0 174#F57F00008D6A0452
(3.882171) can0 178#F27F0000CA950477
(3.882333) can0 17C#0000000051800440
(3.882512) can0 290#0030000000000000
(3.882634) can0 300#0F00000000000000
(3.882741) can0 174#F57F0000826A05C9
(3.892427) can0 178#EC7F0120C5950574
(3.892594) can0 17C#000000005180055D
(3.892756) can0 450#0000000000000000
(3.892878) can0 290#0060000000000000
(3.893025) can0 174#F57F0000816A0662
(3.902657) can0 178#E77F0221C29506CF
(3.902826) can0 17C#000000004B80066D
(3.902989) can0 174#EF7F0000846A0727
(3.912900) can0 178#EC7F0324C495075B
(3.913062) can0 17C#000000004D800775
(3.913224) can0 290#0000000000000000
(3.923143) can0 174#E47F0000866A08AA
(3.923304) can0 178#F57F042FC995087E
(3.923466) can0 17C#000000004B8008CB
(3.933386) can0 290#0020000000000000
(3.933556) can0 174#E17F0000866A0983
(3.933718) can0 178#F57F0512CA9509A5
(3.943642) can0 17C#00000000438009DA
(3.943805) can0 290#0010000000000000
(3.943967) can0 12B#0000000000013FF9
(3.944129) can0 12A#1228012000000000
(3.944250) can0 174#E47F00008A6A0A9A
(3.953873) can0 178#F57F0624CA950A3A
(3.954035) can0 17C#0000000048800A7D
(3.954197) can0 450#0000000000000000
(3.954324) can0 290#0020000000000000
(3.964115) can0 12B#0000000000013FF9
(3.964236) can0 128#1388030000EC7882
(3.964340) can0 174#EA7F0000896A0B0A
(3.964494) can0 178#F27F0726C9950B68
(3.964655) can0 17C#0000000059800BF7
(3.974358) can0 290#0020000000000000
(3.974488) can0 12B#0000000000013FF9
(3.974593) can0 174#EA7F0000826A0CD9
(3.974739) can0 178#E77F0820C5950CA9
(3.974900) can0 17C#0000000069800C8C
(3.984600) can0 290#0010000000000000
(3.984799) can0 12B#0000000000013FF9
(3.984928) can0 178#E77F0925C7950D0E
(3.985078) can0 17C#0000000074800D0C
(3.994845) can0 290#0000000000000000
(3.995012) can0 12B#0000000000013FF9
(3.995133) can0 17C#000000007B800EAD
(3.995280) can0 290#0010000000000000
(4.005100) can0 12B#0000000000013FF9
(4.005220) can0 128#1388030000EC78C2
(4.005364) can0 12E#00000000000000C0
(4.005533) can0 450#0000000000000000
(4.005654) can0 290#0010000000000000
(4.005759) can0 12B#0000000000013FF9
(4.005863) can0 174#F87F0000846A0043
(4.006008) can0 178#F87F0239C49500D8
(4.015329) can0 290#0020000000000000
(4.015511) can0 12B#0000000000013FF9
(4.015645) can0 128#1388030000EC7822
(4.015790) can0 290#0040000000000000
(4.025577) can0 12B#0000000000013FF9
(4.025697) can0 174#FA7F0000896A0246
(4.025845) can0 290#0040000000000000
(4.025967) can0 12B#0000000000013FF9
(4.026072) can0 128#1388030000EC7842
(4.026216) can0 290#0020000000000000
(4.035821) can0 12B#0000000000013FF9
(4.035941) can0 12A#1228012000000000
(4.036046) can0 550#0000000000000080
(4.036193) can0 174#F57F0000926A04CC
(4.036354) can0 290#0030000000000000
(4.046058) can0 12B#0000000000013FF9
(4.046179) can0 128#1388030000EC7862
(4.046324) can0 290#0020000000000000
(4.046494) can0 12B#0000000000013FF9
(4.046615) can0 174#EF7F0000896A06BF
(4.056315) can0 290#0000000000000000
(4.056485) can0 12B#0000000000013FF9
(4.056606) can0 128#1388030000EC7882
(4.056751) can0 290#0020000000000000
(4.056913) can0 12B#0000000000013FF9
(4.057034) can0 174#F57F00007E6A08CA
(4.066546) can0 290#0030000000000000
(4.066708) can0 12B#0000000000013FF9
(4.066830) can0 128#1388030000EC78A2
(4.066974) can0 12E#00000000000000A0
(4.076787) can0 12A#1228012000000000
(4.076908) can0 290#0010000000000000
(4.077061) can0 12B#0000000000013FF9
(4.077182) can0 174#F57F00008C6A0A7B
(4.077327) can0 290#0020000000000000
(4.087030) can0 12B#0000000000013FF9
(4.087151) can0 128#1388030000EC78C2
(4.087296) can0 12B#0000000000013FF9
(4.087416) can0 174#EF7F0000956A0C7F
(4.087570) can0 178#FA7F0827B9950C40
(4.097273) can0 128#1388030000EC7822
(4.097433) can0 12E#0000000000000020
(4.097600) can0 174#F27F00008F6A0D2A
(4.107538) can0 178#FA7F0000C4950D59
(4.107699) can0 550#00000000000000C0
(4.107863) can0 174#F57F0000816A0E8A
(4.108031) can0 178#FA7F0120D0950E40
(4.117759) can0 17C#0000000069800EB6
(4.117921) can0 12E#0000000000000040
(4.118127) can0 174#F57F0000786A0F9C
(4.128002) can0 178#FA7F0000D5950FF4
(4.128174) can0 17C#0000000071800FBF
(4.128344) can0 174#FA7F0000746A0071
(4.138261) can0 178#FD7F0112D4950026
(4.138422) can0 17C#0000000077800001
(4.138599) can0 174#FA7F00007B6A01EA
(4.148503) can0 178#0080020FD29501AC
(4.148665) can0 17C#0000000072800195
(4.148828) can0 174#F57F0000846A029F
(4.158733) can0 178#00800302D29502AE
(4.158909) can0 17C#000000007180023E
(4.159072) can0 290#0040000000000000
(4.159233) can0 550#0000000000000020
(4.168990) can0 300#0F00000000000000
(4.169112) can0 174#EF7F0000896A03D6
(4.169258) can0 174#EF7F0000866A0403
(4.169419) can0 178#00800512B49504F1
(4.179217) can0 17C#000000008E80047E
(4.179379) can0 290#0030000000000000
(4.179550) can0 174#F57F0000846A05CC
(4.189460) can0 178#06800614AC9505FC
(4.189626) can0 17C#0000000094800574
(4.189788) can0 174#FD7F0000826A063C
(4.199702) can0 178#0B80072FB495060A
(4.199865) can0 17C#0000000094800653
(4.200027) can0 290#0010000000000000
(4.209945) can0 174#FD7F0000816A07AD
(4.210107) can0 178#0B800802BE950761
(4.210269) can0 17C#0000000090800748
(4.220202) can0 174#F57F0000816A08C4
(4.220364) can0 178#1180090FBE95082E
(4.220534) can0 17C#000000007880086F
(4.220696) can0 174#EC7F0000826A0963
(4.230431) can0 178#22800A13B99509C1
(4.230599) can0 17C#0000000062800965
(4.230761) can0 290#0020000000000000
(4.240674) can0 12B#0000000000013FF9
(4.240796) can0 174#E77F0000816A0AFD
(4.240949) can0 178#2D800B03B9950AF5
(4.241111) can0 17C#0000000067800ACB
(4.250917) can0 290#0020000000000000
(4.251039) can0 12B#0000000000013FF9
(4.251145) can0 128#1388030000EC7842
(4.251290) can0 174#EA7F00007C6A0B0B
(4.251460) can0 178#2A800C08C1950B0F
(4.261160) can0 17C#0000000071800BCB
(4.261322) can0 290#0040000000000000
(4.261493) can0 174#F27F00007E6A0C30
(4.271422) can0 178#22800D2FC7950C5F
(4.271592) can0 17C#000000006D800C8A
(4.271762) can0 300#0F00000000000000
(4.271885) can0 174#EF7F0000866A0DF6
(4.272031) can0 178#1F800E07C4950D96
(4.281646) can0 17C#000000005F800DBC
(4.281820) can0 450#0000000000000000
(4.281943) can0 174#EA7F00008C6A0EEA
(4.282096) can0 178#1C800F0DBC950EC3
(4.291893) can0 17C#000000005C800E17
(4.292055) can0 290#0020000000000000
(4.292218) can0 174#EA7F0000896A0F7E
(4.302132) can0 178#1F800002B9950FA4
(4.302302) can0 17C#0000000066800F2D
(4.302464) can0 290#0010000000000000
(4.312411) can0 174#EF7F0000826A0071
(4.312590) can0 178#27800108C195008E
(4.312752) can0 17C#0000000067800019
(4.322632) can0 174#F57F00007E6A013F
(4.322797) can0 178#30800000C995015E
(4.322959) can0 17C#000000005B800126
(4.323121) can0 290#0010000000000000
(4.323243) can0 12B#0000000000013FF9
(4.323348) can0 12A#1228012000000000
(4.323453) can0 174#F57F0000826A029A
(4.332863) can0 178#32800128CA9502F3
(4.333024) can0 17C#0000000056800284
(4.333186) can0 450#0000000000000000
(4.333309) can0 174#F57F00008A6A038B
(4.343104) can0 178#2D800220CD9503A3
(4.343265) can0 17C#0000000058800390
(4.343427) can0 290#0030000000000000
(4.353347) can0 12B#0000000000013FF9
(4.353468) can0 174#F87F0000916A04A6
(4.353619) can0 178#27800321D09504F2
(4.353789) can0 17C#00000000588004C3
(4.363590) can0 290#0030000000000000
(4.363712) can0 12B#0000000000013FF9
(4.363818) can0 174#F27F00008F6A05C2
(4.363963) can0 178#27800423CD95055E
(4.364125) can0 17C#000000005F800554
(4.373835) can0 174#EF7F0000866A0639
(4.373997) can0 178#27800523C2950695
(4.374158) can0 17C#00000000668006D8
(4.384089) can0 178#22800622BF950752
(4.384251) can0 17C#00000000668007C5
(4.384420) can0 450#0000000000000000
(4.384547) can0 17C#000000005B8008D3
(4.384694) can0 290#0020000000000000
(4.394319) can0 12B#0000000000013FF9
(4.394440) can0 290#0010000000000000
(4.394595) can0 12B#0000000000013FFA
(4.394757) can0 174#EC7F00008F6A0AC1
(4.404563) can0 178#08800920C1950ACE
(4.404725) can0 290#0030000000000000
(4.404888) can0 12B#0000000000013FF9
(4.414805) can0 128#1388030000EC7882
(4.414966) can0 290#0030000000000000
(4.415088) can0 12B#0000000000013FFA
(4.415234) can0 12A#1228012000000000
(4.415355) can0 290#0050000000000000
(4.425047) can0 12B#0000000000013FF9
(4.425209) can0 128#1388030000EC78A2
(4.425370) can0 290#0030000000000000
(4.435304) can0 12B#0000000000013FFA
(4.435466) can0 174#F27F00008C6A0E81
(4.435635) can0 178#19800000CD950E03
(4.435797) can0 290#0040000000000000
(4.445535) can0 12B#0000000000013FF9
(4.445697) can0 128#1388030000EC78C2
(4.445863) can0 12E#00000000000000C0
(4.455776) can0 174#EF7F00008C6A0FC3
(4.455938) can0 290#0040000000000000
(4.456060) can0 12B#0000000000013FFA
(4.456213) can0 174#EF7F0000866A0077
(4.466019) can0 290#0030000000000000
(4.466182) can0 12B#0000000000013FF9
(4.466344) can0 128#1388030000EC7822
(4.476270) can0 290#0020000000000000
(4.476486) can0 12B#0000000000013FFA
(4.476664) can0 174#E47F0000796A0276
(4.486520) can0 290#0030000000000000
(4.486687) can0 12B#0000000000013FFA
(4.486809) can0 128#1388030000EC7842
(4.486954) can0 290#0020000000000000
(4.487117) can0 12B#0000000000013FF9
(4.496748) can0 174#F57F00007F6A04D9
(4.496910) can0 290#0020000000000000
(4.497032) can0 12B#0000000000013FFA
(4.497178) can0 128#1388030000EC7862
(4.506991) can0 12E#0000000000000060
(4.507153) can0 12B#0000000000013FF9
(4.507315) can0 12A#1228012000000000
(4.507436) can0 550#0000000000000040
(4.517234) can0 12B#0000000000013FFA
(4.517396) can0 128#1388030000EC7882
(4.517565) can0 12E#0000000000000080
(4.527485) can0 174#EC7F0000926A0866
(4.527647) can0 178#E17F0820D4950899
(4.527808) can0 17C#00000000618008F4
(4.537723) can0 290#0010000000000000
(4.537886) can0 174#EA7F0000896A0930
(4.538056) can0 178#E17F0925D79509B1
(4.538223) can0 17C#00000000698009E5
(4.547979) can0 290#0020000000000000
(4.548149) can0 12B#0000000000013FFA
(4.548276) can0 174#EF7F00007F6A0AAE
(4.548422) can0 178#DE7F0A29D7950A70
(4.558206) can0 17C#0000000077800AD3
(4.558375) can0 290#0000000000000000
(4.558554) can0 12B#0000000000013FF9
(4.568449) can0 5A0#00692000000000C9
(4.568624) can0 550#0000000000000060
(4.568787) can0 300#0F00000000000000
(4.568910) can0 174#FA7F0000896A0CE0
(4.578692) can0 178#CB7F0120CA950CE6
(4.578858) can0 17C#000000006D800C8A
(4.579020) can0 174#F57F00008C6A0D28
(4.588935) can0 178#D07F0000BF950D96
(4.589096) can0 17C#0000000064800D14
(4.589259) can0 174#F27F00008D6A0E0E
(4.599191) can0 178#D07F0120B9950E94
(4.599353) can0 17C#0000000059800E9E
(4.599524) can0 174#F57F00008F6A0F9E
(4.599686) can0 178#D37F0221BC950FC4
(4.609421) can0 17C#0000000050800F00
(4.609587) can0 290#0030000000000000
(4.609750) can0 12B#0000000000013FF9
(4.609872) can0 174#FD7F00008D6A00F4
(4.619664) can0 178#D97F0324C49500EA
(4.619828) can0 17C#00000000548000BD
(4.619997) can0 450#0000000000000000
(4.620120) can0 174#FD7F00008F6A01EA
(4.629907) can0 178#DE7F042FCD9501D7
(4.630068) can0 17C#000000006A800181
(4.630230) can0 290#0020000000000000
(4.640149) can0 12B#0000000000013FF9
(4.640271) can0 174#FA7F00008F6A0243
(4.640416) can0 178#E17F0512D5950224
(4.640586) can0 17C#000000008A800236
(4.650406) can0 290#0010000000000000
(4.650576) can0 12B#0000000000013FF9
(4.650697) can0 174#F87F00008A6A036D
(4.650882) can0 178#E47F0624D8950330
(4.651055) can0 17C#0000000096800339
(4.660635) can0 290#0030000000000000
(4.660802) can0 174#EF7F0000866A0403
(4.660964) can0 178#E17F0726D795049C
(4.670880) can0 17C#000000008880047B
(4.671042) can0 290#0010000000000000
(4.671205) can0 300#0F00000000000000
(4.671328) can0 174#EC7F00008C6A05F6
(4.681121) can0 178#D97F0820CD950587
(4.681283) can0 17C#00000000788005EE
(4.681453) can0 450#0000000000000000
(4.681591) can0 290#0030000000000000
(4.691364) can0 12B#0000000000013FF9
(4.691499) can0 174#EA7F0000946A0616
(4.691653) can0 178#D67F0925C195064F
(4.691825) can0 17C#00000000748006C3
(4.701625) can0 290#0030000000000000
(4.701753) can0 12B#0000000000013FF9
(4.701859) can0 174#EC7F00009B6A075E
(4.702011) can0 178#D37F0000B79507AF
(4.702173) can0 17C#000000007B800758
(4.702341) can0 290#0020000000000000
(4.711857) can0 12B#0000000000013FF9
(4.711979) can0 174#F27F00009F6A085B
(4.712125) can0 178#D07F0125B7950800
(4.712286) can0 17C#000000007D8008E6
(4.722098) can0 290#0000000000000000
(4.722262) can0 12B#0000000000013FF9
(4.722383) can0 128#1388030000EC7822
(4.722536) can0 174#EF7F00009B6A091F
(4.732336) can0 178#D07F0239BF950958
(4.732506) can0 17C#000000006F8009E0
(4.732668) can0 290#0010000000000000
(4.742579) can0 12B#0000000000013FF9
(4.742700) can0 174#EA7F0000956A0A05
(4.742849) can0 178#D37F0321C1950A0A
(4.743011) can0 17C#000000006A800A4E
(4.752823) can0 450#0000000000000000
(4.752945) can0 290#0010000000000000
(4.753052) can0 12B#0000000000013FF9
(4.753157) can0 174#EC7F00008F6A0BDC
(4.753303) can0 178#DE7F0420BC950BAA
(4.753464) can0 17C#0000000072800B47
(4.763079) can0 290#0000000000000000
(4.763242) can0 174#F27F0000846A0CB7
(4.763403) can0 178#E77F0000B4950C53
(4.763573) can0 17C#0000000075800C9E
(4.773308) can0 290#0040000000000000
(4.773478) can0 12B#0000000000013FF9
(4.773600) can0 174#EF7F0000786A0D77
(4.773746) can0 178#DC7F0000B1950D24
(4.783552) can0 17C#0000000074800D0C
(4.783715) can0 290#0040000000000000
(4.783837) can0 12B#0000000000013FF9
(4.783942) can0 174#EF7F0000706A0E5C
(4.784088) can0 178#D07F0122B6950E35
(4.793794) can0 17C#0000000074800E2B
(4.793956) can0 300#0F00000000000000
(4.794079) can0 174#EF7F00006E6A0F50
(4.794224) can0 178#C57F0220C1950FFE
(4.804037) can0 17C#0000000072800F33
(4.804199) can0 174#EF7F0000786A00F6
(4.804360) can0 178#C27F0332CA950023
(4.814329) can0 17C#0000000072800088
(4.814510) can0 174#F57F0000876A0134
(4.814671) can0 178#CB7F0420D09501AF
(4.814834) can0 17C#000000007B800116
(4.824524) can0 178#DC7F0523D095026F
(4.824689) can0 17C#000000008D8002BC
(4.824856) can0 290#0020000000000000
(4.834766) can0 17C#00000000918003B3
(4.834935) can0 290#0030000000000000
(4.835098) can0 12B#0000000000013FF9
(4.835219) can0 450#0000000000000000
(4.835326) can0 290#0020000000000000
(4.845009) can0 12B#0000000000013FF9
(4.845130) can0 128#1388030000EC7822
(4.845234) can0 290#0030000000000000
(4.845381) can0 12B#0000000000013FF9
(4.845510) can0 174#EF7F0000826A063F
(4.845656) can0 178#D97F0000CC950612
(4.855251) can0 290#0030000000000000
(4.855374) can0 12B#0000000000013FF8
(4.855528) can0 128#1388030000EC7842
(4.855689) can0 290#0020000000000000
(4.865515) can0 12B#0000000000013FF9
(4.865677) can0 174#F57F00009B6A08D3
(4.865841) can0 290#0050000000000000
(4.866004) can0 12B#0000000000013FF8
(4.875737) can0 128#1388030000EC7862
(4.875899) can0 290#0030000000000000
(4.876061) can0 12B#0000000000013FF9
(4.885980) can0 174#F57F00009B6A0AE9
(4.886142) can0 290#0020000000000000
(4.886305) can0 12B#0000000000013FF8
(4.896223) can0 128#1388030000EC7882
(4.896384) can0 12E#0000000000000080
(4.896514) can0 290#0020000000000000
(4.896620) can0 12B#0000000000013FF9
(4.896773) can0 174#EF7F00008A6A0CE1
(4.906466) can0 290#0040000000000000
(4.906636) can0 12B#0000000000013FF8
(4.906798) can0 128#1388030000EC78A2
(4.916712) can0 12E#00000000000000A0
(4.916875) can0 290#0010000000000000
(4.917038) can0 12B#0000000000013FF8
(4.917159) can0 12A#1228012000000000
(4.917264) can0 550#0000000000000080
(4.917410) can0 174#F27F00008D6A0E0E
(4.926968) can0 290#0030000000000000
(4.927131) can0 12B#0000000000013FF9
(4.927293) can0 128#1388030000EC78C2
(4.937195) can0 12B#0000000000013FF8
(4.937357) can0 174#EF7F0000986A0066
(4.937527) can0 178#08800802D495008A
(4.947438) can0 17C#000000008A80000C
(4.947609) can0 290#0010000000000000
(4.947771) can0 128#1388030000EC7822
(4.957681) can0 12E#0000000000000020
(4.957846) can0 174#EF7F00009A6A0178
(4.958007) can0 178#1180090FCD95011F
(4.967924) can0 174#F27F0000986A0203
(4.968094) can0 178#16800A13C2950279
(4.968263) can0 17C#0000000088800235
(4.978181) can0 12A#1228012000000000
(4.978309) can0 12C#0000000000000000
(4.978415) can0 5A0#0069200000000089
(4.978621) can0 174#F57F00008F6A0451
(4.978795) can0 178#14800C08BF950422
(4.978957) can0 17C#0000000080800477
(4.988410) can0 174#F57F0000896A0549
(4.988590) can0 178#06800D2FC59505AF
(4.988751) can0 17C#000000007580056B
(4.998653) can0 290#0030000000000000
(4.998817) can0 12B#0000000000013FF8
(4.998938) can0 174#FA7F0000826A06B2
(4.999084) can0 178#FA7F0E07C99506F1
(5.008902) can0 17C#000000006C8006D7
(5.009063) can0 290#0030000000000000
(5.009184) can0 12B#0000000000013FF8
(5.009288) can0 128#1388030000EC7882
(5.009432) can0 174#FD7F0000826A0721
(5.019139) can0 178#00800F0DC59507FF
(5.019300) can0 17C#00000000668007C5
(5.019462) can0 550#00000000000000C0
(5.029395) can0 174#00800000846A08D9
(5.029565) can0 178#0E800002C29508DB
(5.029727) can0 17C#000000006C800871
(5.029889) can0 174#FA7F0000846A090C
(5.039625) can0 178#16800108C295097C
(5.039786) can0 17C#00000000758009F7
(5.039948) can0 290#0020000000000000
(5.049870) can0 12B#0000000000013FF8
(5.049991) can0 174#FA7F0000846A0A2B
(5.050136) can0 178#14800000C5950A9D
(5.050304) can0 17C#000000007D800ADC
(5.060111) can0 174#FD7F0000896A0B3D
(5.060272) can0 178#08800128C4950BB1
(5.060433) can0 17C#0000000083800B40
(5.070354) can0 290#0010000000000000
(5.070524) can0 12B#0000000000013FF8
(5.070645) can0 174#00800000926A0CB0
(5.070791) can0 178#06800220C4950CC1
(5.080610) can0 17C#000000008B800C1F
(5.080772) can0 290#0040000000000000
(5.080934) can0 300#0F00000000000000
(5.081056) can0 174#FA7F0000986A0D6A
(5.081202) can0 178#06800321C4950D2B
(5.090843) can0 174#F57F0000986A0E11
(5.091004) can0 178#03800423BE950E53
(5.091166) can0 17C#000000008A800EAA
(5.101082) can0 290#0010000000000000
(5.101245) can0 12B#0000000000013FF8
(5.101373) can0 174#EA7F0000946A0FE3
(5.101527) can0 178#06800523BC950F13
(5.111325) can0 17C#0000000086800FBD
(5.111494) can0 174#E77F00008C6A00AA
(5.111662) can0 178#06800622BE950088
(5.121575) can0 17C#000000007480008D
(5.121737) can0 290#0020000000000000
(5.121908) can0 174#EA7F0000826A0158
(5.131813) can0 178#00800724BC950146
(5.131975) can0 17C#000000005B800126
(5.132137) can0 174#EF7F0000826A024B
(5.142073) can0 178#F87F0823BB950211
(5.142235) can0 17C#000000005380020D
(5.142397) can0 450#0000000000000000
(5.142528) can0 174#EF7F0000896A03D6
(5.142673) can0 178#FD7F0920B79503E2
(5.152297) can0 17C#00000000648003B2
(5.152459) can0 174#EC7F0000926A04FA
(5.152662) can0 178#03800A21BB950439
(5.162541) can0 17C#00000000728004FC
(5.162708) can0 174#E77F0000926A05D2
(5.162869) can0 178#06800B29C19505A1
(5.172783) can0 17C#000000006D80057F
(5.172945) can0 290#0040000000000000
(5.173108) can0 12B#0000000000013FF8
(5.173229) can0 174#E47F0000896A068A
(5.183026) can0 178#06800000C5950602
(5.183188) can0 17C#0000000061800652
(5.183350) can0 290#0030000000000000
(5.193282) can0 300#0F00000000000000
(5.193405) can0 174#EA7F0000816A079A
(5.193559) can0 178#06800000CA950799
(5.193720) can0 17C#000000005980076B
(5.193883) can0 174#EF7F0000866A089F
(5.203513) can0 178#088000FFCA950885
(5.203675) can0 17C#00000000598008D0
(5.203851) can0 174#EC7F0000916A09F7
(5.213755) can0 178#0B800000C595095F
(5.213917) can0 17C#000000005E800947
(5.214086) can0 174#EA7F00009A6A0A83
(5.223998) can0 178#11800120C4950A06
(5.224160) can0 17C#000000005E800A60
(5.224322) can0 290#0010000000000000
(5.234241) can0 174#EA7F00009A6A0B9E
(5.234402) can0 178#16800222C4950B0C
(5.234572) can0 17C#0000000054800B72
(5.244502) can0 290#0030000000000000
(5.244664) can0 178#19800326C4950C27
(5.244828) can0 17C#000000004B800CBF
(5.244990) can0 450#0000000000000000
(5.245113) can0 17C#0000000050800D3A
(5.254727) can0 290#0010000000000000
(5.254890) can0 12B#0000000000013FF8
(5.255011) can0 174#008000007B6A0E99
(5.255157) can0 290#0020000000000000
(5.264970) can0 12B#0000000000013FF8
(5.265091) can0 128#1388030000EC7882
(5.265195) can0 290#0020000000000000
(5.265301) can0 12B#0000000000013FF8
(5.265407) can0 174#F57F0000826A00A0
(5.265560) can0 290#0050000000000000
(5.265723) can0 12B#0000000000013FF8
(5.265845) can0 128#1388030000EC78A2
(5.275213) can0 12E#00000000000000A0
(5.275375) can0 290#0030000000000000
(5.275546) can0 12B#0000000000013FF8
(5.275667) can0 174#F57F0000896A021A
(5.285456) can0 178#EA7F0925C49502DF
(5.285621) can0 290#0040000000000000
(5.285784) can0 12B#0000000000013FF8
(5.285905) can0 128#1388030000EC78C2
(5.295701) can0 12E#00000000000000C0
(5.295864) can0 290#0030000000000000
(5.296027) can0 12B#0000000000013FF8
(5.296148) can0 174#EA7F0000746A04BC
(5.296292) can0 290#0030000000000000
(5.296414) can0 12B#0000000000013FF8
(5.296528) can0 128#1388030000EC7822
(5.305957) can0 12E#0000000000000020
(5.306120) can0 290#0040000000000000
(5.306282) can0 12B#0000000000013FF8
(5.306404) can0 12A#1228012000000000
(5.306556) can0 550#00000000000000C0
(5.306675) can0 174#EA7F0000876A0682
(5.316184) can0 290#0040000000000000
(5.316310) can0 12B#0000000000013FF8
(5.316416) can0 128#1388030000EC7842
(5.316569) can0 290#0010000000000000
(5.316732) can0 12B#0000000000013FF8
(5.316853) can0 174#EF7F00008F6A081C
(5.326427) can0 178#EC7F0221CF9508D9
(5.326594) can0 290#0010000000000000
(5.326716) can0 12B#0000000000013FF8
(5.326821) can0 128#1388030000EC7862
(5.326967) can0 12E#0000000000000060
(5.336670) can0 290#0020000000000000
(5.336834) can0 12B#0000000000013FF8
(5.336955) can0 174#EF7F00008A6A0AAF
(5.337101) can0 178#E17F042FD0950A0F
(5.346913) can0 128#1388030000EC7882
(5.347074) can0 12E#0000000000000080
(5.347236) can0 12A#1228012000000000
(5.347357) can0 12C#0000000000000000
(5.347463) can0 5A0#0069200000000049
(5.357170) can0 550#0000000000000020
(5.357333) can0 174#F87F0000896A0C5A
(5.357503) can0 178#CE7F0624C4950C9E
(5.357664) can0 17C#0000000046800C3A
(5.367399) can0 290#0030000000000000
(5.367570) can0 174#F57F00008A6A0D2D
(5.367732) can0 178#D67F0726BE950DE2
(5.377642) can0 17C#0000000050800D3A
(5.377805) can0 290#0030000000000000
(5.377927) can0 174#F27F00008F6A0E0D
(5.378080) can0 178#D97F0820BE950E8C
(5.387888) can0 17C#000000005B800E9D
(5.388056) can0 174#EF7F00008F6A0F4F
(5.388218) can0 178#CB7F0925C4950F6C
(5.398128) can0 17C#0000000059800F83
(5.398299) can0 290#0020000000000000
(5.398461) can0 550#0000000000000040
(5.408385) can0 174#EF7F0000896A00F1
(5.408562) can0 178#AF7F0000CC950087
(5.408731) can0 17C#0000000059800038
(5.408901) can0 450#0000000000000000
(5.409024) can0 290#0030000000000000
(5.418614) can0 174#EF7F0000866A016A
(5.418775) can0 178#A17F0125CF9501E4
(5.418937) can0 17C#000000005C8001AC
(5.428859) can0 290#0020000000000000
(5.429021) can0 174#EF7F0000846A024E
(5.429183) can0 178#A67F0239CD950207
(5.439100) can0 17C#000000005E800288
(5.439262) can0 290#0030000000000000
(5.439425) can0 174#F27F0000866A030F
(5.449343) can0 178#B47F0321C79503C5
(5.449510) can0 17C#000000005E800395
(5.449672) can0 290#0030000000000000
(5.449794) can0 12B#0000000000013FF8
(5.449900) can0 174#F87F00008A6A043E
(5.459599) can0 178#BA7F0420C5950402
(5.459761) can0 17C#00000000668004E2
(5.459923) can0 290#0040000000000000
(5.460086) can0 300#0F00000000000000
(5.460209) can0 174#FA7F00008F6A0510
(5.469830) can0 178#B27F0000C1950534
(5.470028) can0 174#F87F0000926A0610
(5.470201) can0 178#A97F0000BE950651
(5.480072) can0 17C#000000008280064E
(5.480238) can0 290#0020000000000000
(5.480401) can0 174#F27F00008F6A07F8
(5.490318) can0 178#A17F0122BB950710
(5.490489) can0 17C#00000000938007C4
(5.490664) can0 174#EF7F00008C6A0890
(5.500559) can0 178#A47F0220BE95088F
(5.500720) can0 17C#000000009E8008FA
(5.500883) can0 290#0040000000000000
(5.510801) can0 12B#0000000000013FF7
(5.510963) can0 174#F57F0000896A09D5
(5.511124) can0 178#A97F0332BF950993
(5.521057) can0 17C#000000009B80096E
(5.521219) can0 290#0040000000000000
(5.521348) can0 12B#0000000000014FF8
(5.521503) can0 12A#1228012000000000
(5.521632) can0 174#FA7F0000826A0A2E
(5.521784) can0 178#A97F0420C5950AFA
(5.531286) can0 17C#0000000090800AC9
(5.531457) can0 450#0000000000000000
(5.531587) can0 174#F57F00007C6A0BEE
(5.531741) can0 178#AC7F0523CC950B80
(5.541538) can0 17C#0000000088800BC0
(5.541700) can0 290#0030000000000000
(5.541870) can0 174#EF7F00007F6A0CE0
(5.551772) can0 178#A97F0632D0950CF3
(5.551942) can0 17C#0000000086800C9A
(5.552104) can0 174#EC7F0000866A0D11
(5.562021) can0 178#A67F0721CF950DD9
(5.562182) can0 17C#000000008B800D02
(5.562353) can0 174#EA7F0000866A0EE5
(5.572272) can0 178#A97F0827CC950E3B
(5.572433) can0 17C#0000000093800E31
(5.572607) can0 290#0010000000000000
(5.572770) can0 12B#0000000000013FF7
(5.582509) can0 300#0F00000000000000
(5.582631) can0 174#EA7F0000846A0FFB
(5.582777) can0 178#B27F0000C7950FE3
(5.582939) can0 174#E47F0000896A00C4
(5.592744) can0 178#B47F0120C59500A8
(5.592906) can0 17C#000000008E80000A
(5.593068) can0 290#0030000000000000
(5.602987) can0 12B#0000000000013FF7
(5.603108) can0 128#1388030000EC7862
(5.603253) can0 174#E47F00008F6A01DC
(5.603415) can0 178#B77F0000C49501FD
(5.613230) can0 17C#000000008D80019B
(5.613392) can0 174#E77F00008F6A021C
(5.613562) can0 178#BA7F0112C19502DD
(5.623494) can0 17C#0000000096800224
(5.623657) can0 174#EA7F00008A6A036E
(5.623820) can0 178#C07F020FC1950374
(5.623982) can0 17C#00000000A6800311
(5.633716) can0 174#F57F0000896A0454
(5.633878) can0 178#C57F0302BB950471
(5.634040) can0 17C#00000000BC800455
(5.643959) can0 174#FA7F00008A6A0599
(5.644120) can0 178#C27F0405B495059B
(5.644282) can0 17C#00000000CD80058F
(5.654202) can0 178#C57F0512B1950600
(5.654363) can0 17C#00000000CB8006AD
(5.654542) can0 290#0020000000000000
(5.664494) can0 12B#0000000000013FF6
(5.664672) can0 128#1388030000EC78C2
(5.664834) can0 12E#00000000000000C0
(5.674690) can0 17C#00000000B8800774
(5.674860) can0 290#0030000000000000
(5.675023) can0 12B#0000000000013FF7
(5.675183) can0 290#0020000000000000
(5.684947) can0 12B#0000000000013FF6
(5.685109) can0 128#1388030000EC7822
(5.685270) can0 12E#0000000000000020
(5.695174) can0 290#0030000000000000
(5.695336) can0 12B#0000000000014FF6
(5.695506) can0 174#EF7F00008C6A0AAA
(5.705417) can0 178#E17F090FC7950A7F
(5.705586) can0 17C#000000009B800A49
(5.705749) can0 290#0030000000000000
(5.705871) can0 12B#0000000000013FF6
(5.715660) can0 128#1388030000EC7842
(5.715826) can0 290#0040000000000000
(5.715989) can0 12B#0000000000013FF6
(5.716110) can0 174#F57F0000956A0CAE
(5.725903) can0 178#EC7F0B03CA950C54
(5.726064) can0 290#0020000000000000
(5.726227) can0 12B#0000000000013FF6
(5.726348) can0 128#1388030000EC7862
(5.736159) can0 290#0030000000000000
(5.736322) can0 12B#0000000000013FF6
(5.736447) can0 12A#1228012000000000
(5.736564) can0 550#0000000000000040
(5.736671) can0 290#0010000000000000
(5.736819) can0 12B#0000000000013FF6
(5.736940) can0 128#1388030000EC7882
(5.737086) can0 290#0050000000000000
(5.746388) can0 12B#0000000000013FF6
(5.746518) can0 174#EF7F0000846A0074
(5.746663) can0 178#DC7F0F0DC59500D8
(5.746828) can0 290#0040000000000000
(5.756632) can0 12B#0000000000014FF6
(5.756793) can0 128#1388030000EC78A2
(5.756955) can0 12E#00000000000000A0
(5.766876) can0 174#EA7F0000866A015E
(5.767038) can0 290#0020000000000000
(5.767201) can0 12B#0000000000013FF6
(5.777117) can0 174#EA7F00008C6A0276
(5.777279) can0 290#0030000000000000
(5.777442) can0 12B#0000000000013FF6
(5.777571) can0 128#1388030000EC78C2
(5.787374) can0 12E#00000000000000C0
(5.787544) can0 290#0040000000000000
(5.787707) can0 12B#0000000000013FF6
(5.787828) can0 174#EC7F0000976A0473
(5.787974) can0 128#1388030000EC7822
(5.797603) can0 12E#0000000000000020
(5.797766) can0 174#F27F0000926A055F
(5.797927) can0 174#F87F00008C6A0601
(5.807848) can0 178#E17F0321D79506E7
(5.808010) can0 17C#00000000728006C6
(5.808179) can0 174#F57F0000896A0773
(5.818094) can0 178#DE7F0423CD95074B
(5.818262) can0 17C#0000000077800752
(5.818425) can0 290#0010000000000000
(5.828337) can0 12B#0000000000013FF6
(5.828459) can0 550#0000000000000080
(5.828619) can0 174#EF7F0000896A0819
(5.828817) can0 178#CB7F0523C595081B
(5.838595) can0 174#EF7F00008D6A0902
(5.838761) can0 178#BA7F0622C7950973
(5.838923) can0 17C#000000006D8009E3
(5.839085) can0 174#EF7F0000926A0ABB
(5.848820) can0 178#B27F0724CC950A05
(5.848982) can0 17C#000000006F800AC7
(5.849144) can0 290#0000000000000000
(5.859061) can0 174#F27F0000946A0BFC
(5.859223) can0 178#BD7F0823CF950B40
(5.859384) can0 17C#0000000078800B48
(5.869304) can0 174#F57F00008F6A0CB9
(5.869465) can0 178#C87F0920CF950CFF
(5.869635) can0 17C#000000008B800C1F
(5.879548) can0 290#0030000000000000
(5.879711) can0 12B#0000000000014FF6
(5.879873) can0 550#00000000000000A0
(5.889790) can0 300#0F00000000000000
(5.889912) can0 174#F87F00008A6A0DCB
(5.890065) can0 174#EF7F00008C6A0EDE
(5.890227) can0 178#CE7F0B29C4950E43
(5.900046) can0 17C#000000008A800EAA
(5.900208) can0 174#EC7F00008F6A0FA8
(5.900370) can0 178#CE7F0000BC950F98
(5.900540) can0 17C#000000007B800FB0
(5.910276) can0 174#EA7F00008C6A004C
(5.910437) can0 178#CB7F0000BB95009D
(5.910603) can0 17C#0000000072800088
(5.920520) can0 174#EA7F0000826A0158
(5.920682) can0 178#C87F00FFC495010F
(5.920846) can0 17C#000000006D80010B
(5.930762) can0 290#0010000000000000
(5.930925) can0 12B#0000000000013FF5
(5.931087) can0 174#EC7F00007C6A022D
(5.941005) can0 178#CE7F0000CD9502DE
(5.941166) can0 17C#000000006F80022F
(5.941337) can0 450#0000000000000000
(5.941460) can0 174#F27F00007F6A0304
(5.951261) can0 178#D67F0120CD950388
(5.951431) can0 17C#00000000788003A0
(5.951600) can0 290#0030000000000000
(5.951770) can0 12B#0000000000014FF6
(5.961505) can0 174#F57F0000846A04D1
(5.961666) can0 178#D37F0222C9950470
(5.961838) can0 17C#0000000082800474
(5.971733) can0 290#0030000000000000
(5.971856) can0 12B#0000000000013FF5
(5.972008) can0 128#1388030000EC7862
(5.972170) can0 12E#0000000000000060
(5.981976) can0 174#F57F0000866A05CF
(5.982145) can0 178#C27F0326C4950528
(5.982306) can0 17C#0000000082800569
(5.992219) can0 290#0020000000000000
(5.992382) can0 174#EF7F0000826A063F
(5.992552) can0 178#AF7F0425C49506E9
(6.002483) can0 17C#000000007F800643
(6.002652) can0 290#0020000000000000
(6.002781) can0 12B#0000000000014FF5
(6.002926) can0 128#1388030000EC7882
(6.003086) can0 12E#0000000000000080
(6.012705) can0 300#0F00000000000000
(6.012828) can0 174#EA7F0000816A079A
(6.012973) can0 178#A47F0520C59507F7
(6.013134) can0 17C#00000000858007D9
(6.022984) can0 450#0000000000000000
(6.023114) can0 290#0010000000000000
(6.023264) can0 174#EA7F0000866A08AB
(6.023426) can0 178#A97F0621C795088A
(6.033191) can0 17C#000000008B80086B
(6.033357) can0 290#0030000000000000
(6.033528) can0 12B#0000000000014FF5
(6.033648) can0 128#1388030000EC78A2
(6.043434) can0 174#EA7F00008C6A09B9
(6.043603) can0 178#B47F0721C99509AB
(6.043764) can0 17C#000000008B800976
(6.053680) can0 290#0040000000000000
(6.053855) can0 12B#0000000000013FF5
(6.054017) can0 174#EF7F00008C6A0AAA
(6.054176) can0 178#C07F0820C7950A05
(6.063936) can0 17C#0000000085800A58
(6.064098) can0 290#0010000000000000
(6.064260) can0 174#F57F0000896A0BEF
(6.074163) can0 178#D97F0925C1950B92
(6.074324) can0 17C#0000000088800BC0
(6.074494) can0 290#0040000000000000
(6.084406) can0 12B#0000000000014FF5
(6.084575) can0 174#F57F0000876A0CB5
(6.084736) can0 178#EA7F0A29C1950C9C
(6.094649) can0 17C#0000000091800C08
(6.094811) can0 450#0000000000000000
(6.094933) can0 174#EF7F0000896A0D70
(6.095079) can0 178#EF7F0000C4950DD4
(6.104895) can0 17C#00000000A4800DB4
(6.105057) can0 174#EA7F0000896A0E63
(6.105218) can0 178#EC7F0120C7950EB8
(6.115148) can0 17C#00000000B5800E04
(6.115311) can0 290#0040000000000000
(6.115433) can0 174#EA7F0000866A0FF8
(6.115586) can0 178#DC7F0000CC950FD3
(6.115748) can0 17C#00000000BA800F9F
(6.125378) can0 178#C57F0120D295006F
(6.125547) can0 17C#00000000B58000A2
(6.125709) can0 290#0040000000000000
(6.125836) can0 17C#00000000B4800130
(6.135621) can0 450#0000000000000000
(6.135743) can0 290#0040000000000000
(6.135849) can0 12B#0000000000013FF5
(6.135996) can0 174#F57F0000816A0216
(6.136157) can0 290#0010000000000000
(6.145866) can0 12B#0000000000013FF5
(6.145987) can0 128#1388030000EC7882
(6.146132) can0 290#0030000000000000
(6.146295) can0 12B#0000000000014FF5
(6.156107) can0 174#FD7F00007C6A0487
(6.156268) can0 290#0050000000000000
(6.156431) can0 12B#0000000000013FF5
(6.166363) can0 128#1388030000EC78A2
(6.166532) can0 290#0050000000000000
(6.166654) can0 12B#0000000000013FF5
(6.166759) can0 12A#1228012000000000
(6.166865) can0 550#0000000000000080
(6.167012) can0 174#F27F00008D6A06E6
(6.167173) can0 290#0040000000000000
(6.176592) can0 12B#0000000000014FF5
(6.176754) can0 128#1388030000EC78C2
(6.176915) can0 12E#00000000000000C0
(6.186838) can0 174#EF7F0000916A07B6
(6.187000) can0 290#0050000000000000
(6.187198) can0 12B#0000000000013FF5
(6.197078) can0 174#EA7F00008A6A08A1
(6.197244) can0 290#0040000000000000
(6.197406) can0 12B#0000000000014FF5
(6.207321) can0 128#1388030000EC7822
(6.207495) can0 290#0050000000000000
(6.207657) can0 12B#0000000000013FF5
(6.217579) can0 174#E47F00008C6A0A9F
(6.217741) can0 290#0020000000000000
(6.217904) can0 12B#0000000000013FF5
(6.218031) can0 128#1388030000EC7842
(6.218176) can0 290#0020000000000000
(6.218306) can0 12B#0000000000014FF5
(6.227808) can0 174#F27F00008C6A0CBB
(6.227969) can0 290#0040000000000000
(6.228139) can0 12B#0000000000013FF5
(6.238057) can0 128#1388030000EC7862
(6.238218) can0 12E#0000000000000060
(6.238388) can0 174#F57F0000876A0DA8
(6.248298) can0 178#00800420C5950DE1
(6.248460) can0 290#0020000000000000
(6.248634) can0 12B#0000000000013FF5
(6.248755) can0 174#F57F0000826A0E06
(6.258543) can0 178#08800000CC950E68
(6.258705) can0 128#1388030000EC7882
(6.258874) can0 12E#0000000000000080
(6.268779) can0 174#F57F00007F6A0F16
(6.268941) can0 12A#1228012000000000
(6.269061) can0 550#00000000000000C0
(6.269209) can0 174#EF7F0000866A0077
(6.279036) can0 12E#00000000000000A0
(6.279198) can0 174#F27F0000956A01A1
(6.279367) can0 178#FA7F0220D4950143
(6.279536) can0 174#FA7F00009D6A0258
(6.289265) can0 178#EC7F0332CF9502FE
(6.289426) can0 17C#000000008A800236
(6.289594) can0 290#0040000000000000
(6.299515) can0 174#FA7F0000986A03CC
(6.299677) can0 178#EF7F0420CD95030E
(6.299841) can0 17C#0000000082800327
(6.309751) can0 290#0040000000000000
(6.309873) can0 174#FA7F00008A6A0484
(6.310019) can0 178#03800523D09504B2
(6.310180) can0 17C#0000000082800474
(6.319994) can0 550#0000000000000020
(6.320157) can0 300#0F00000000000000
(6.320279) can0 174#FA7F0000786A0512
(6.320425) can0 178#0E800632D59505C6
(6.330250) can0 174#F87F0000706A0683
(6.330412) can0 178#11800721D79506F2
(6.330581) can0 17C#00000000838006C1
(6.330743) can0 174#F27F0000746A07F0
(6.340488) can0 178#0E800827D4950793
(6.340649) can0 17C#000000009C800742
(6.340812) can0 290#0030000000000000
(6.350723) can0 174#EF7F0000826A0899
(6.350884) can0 178#0B800000D49508D5
(6.351046) can0 17C#00000000A48008DD
(6.360966) can0 174#F27F00008F6A095E
(6.361127) can0 178#06800120D495090E
(6.361296) can0 17C#000000009B80096E
(6.371209) can0 174#F57F0000946A0A6F
(6.371370) can0 178#08800000CD950A93
(6.371546) can0 17C#0000000094800ACF
(6.381458) mark 000#0001
(6.385908) can0 174#F27F0000976A0B70
(6.386185) can0 178#0B800112C9950B07
(6.386347) can0 17C#0000000098800BD8
(6.391700) can0 174#EF7F0000A06A0CDE
(6.391869) can0 178#0680020FC2950CE6
(6.392031) can0 17C#00000000A7800C25
(6.401937) can0 290#0040000000000000
(6.402108) can0 174#EF7F0000A86A0DCF
(6.402276) can0 178#06800302BF950D13
(6.412180) can0 17C#00000000AF800D34
(6.412343) can0 174#EF7F0000A56A0E6D
(6.412510) can0 178#08800405BF950ECA
(6.422423) can0 17C#000000009E800EB4
(6.422594) can0 300#0F00000000000000
(6.422716) can0 174#EF7F00009D6A0F54
(6.422863) can0 178#FD7F0512C1950FB9
(6.432669) can0 17C#000000008A800FB7
(6.432832) can0 174#EF7F0000946A006C
(6.432993) can0 178#EF7F0614C19500D6
(6.433155) can0 17C#000000008B800083
(6.442925) can0 290#0040000000000000
(6.443047) can0 174#F57F00008F6A0138
(6.443193) can0 178#E17F072FC4950160
(6.443362) can0 17C#0000000096800103
(6.453152) can0 290#0020000000000000
(6.453315) can0 174#F57F0000916A020E
(6.453485) can0 178#E17F0802CA950237
(6.463395) can0 17C#000000009E800228
(6.463565) can0 290#0030000000000000
(6.463728) can0 12B#0000000000013FF5
(6.463850) can0 128#1388030000EC7842
(6.473638) can0 12E#0000000000000040
(6.473801) can0 174#F57F0000916A0313
(6.473962) can0 178#EC7F090FD5950377
(6.483883) can0 17C#00000000A3800398
(6.484045) can0 290#0050000000000000
(6.484208) can0 12B#0000000000014FF5
(6.494138) can0 174#F57F00008D6A0452
(6.494299) can0 178#00800A13DD9504C3
(6.494461) can0 17C#000000009F8004E9
(6.494631) can0 174#F57F00008C6A05C0
(6.504367) can0 178#06800B03E09505EF
(6.504537) can0 17C#000000009B8005F2
(6.504699) can0 174#F57F00008F6A066B
(6.514610) can0 178#06800C08DA9506C2
(6.514772) can0 17C#000000009B8006D5
(6.514934) can0 290#0020000000000000
(6.524855) can0 174#F57F00008C6A07FA
(6.525016) can0 178#00800D2FCF950749
(6.525178) can0 17C#00000000918007C7
(6.535096) can0 290#0030000000000000
(6.535259) can0 12B#0000000000014FF5
(6.535385) can0 174#F57F0000846A084D
(6.535541) can0 178#FD7F0E07C495085C
(6.545352) can0 17C#000000008D80086E
(6.545523) can0 174#FA7F0000826A0909
(6.545685) can0 178#F57F0F0DC19509CB
(6.545849) can0 17C#0000000091800961
(6.555582) can0 178#EC7F0002C1950ACE
(6.555743) can0 17C#0000000099800A4A
(6.555906) can0 290#0040000000000000
(6.565826) can0 17C#00000000A7800B76
(6.565988) can0 290#0040000000000000
(6.566110) can0 12B#0000000000014FF5
(6.566253) can0 174#EF7F0000786A0C6A
(6.566411) can0 290#0030000000000000
(6.576068) can0 12B#0000000000013FF5
(6.576230) can0 128#1388030000EC7822
(6.576391) can0 12E#0000000000000020
(6.586311) can0 290#0020000000000000
(6.586479) can0 12B#0000000000014FF5
(6.586641) can0 12A#1228012000000000
(6.586762) can0 290#0020000000000000
(6.586869) can0 12B#0000000000013FF5
(6.596569) can0 128#1388030000EC7842
(6.596730) can0 290#0030000000000000
(6.596893) can0 12B#0000000000014FF5
(6.597054) can0 174#EF7F0000896A00F1
(6.606796) can0 290#0030000000000000
(6.606919) can0 12B#0000000000013FF5
(6.607065) can0 128#1388030000EC7862
(6.607226) can0 290#0010000000000000
(6.617040) can0 12B#0000000000014FF5
(6.617201) can0 174#EF7F00009B6A02D0
(6.617363) can0 178#F27F0622C99502B9
(6.627282) can0 290#0010000000000000
(6.627405) can0 12B#0000000000013FF5
(6.627559) can0 128#1388030000EC7882
(6.627720) can0 12E#0000000000000080
(6.637527) can0 290#0020000000000000
(6.637690) can0 12B#0000000000014FF5
(6.637856) can0 174#FD7F0000916A0492
(6.647768) can0 290#0030000000000000
(6.647931) can0 12B#0000000000013FF5
(6.648101) can0 128#1388030000EC78A2
(6.658032) can0 290#0000000000000000
(6.658195) can0 12B#0000000000014FF5
(6.658364) can0 174#0B800000926A0657
(6.658542) can0 290#0010000000000000
(6.668262) can0 12B#0000000000013FF5
(6.668424) can0 128#1388030000EC78C2
(6.668600) can0 12E#00000000000000C0
(6.678509) can0 290#0030000000000000
(6.678672) can0 12B#0000000000014FF5
(6.678835) can0 12A#1228012000000000
(6.678956) can0 550#0000000000000040
(6.688740) can0 12B#0000000000013FF5
(6.688902) can0 128#1388030000EC7822
(6.689063) can0 12E#0000000000000020
(6.698983) can0 174#F87F0000956A0A06
(6.699152) can0 178#E77F00FFCD950A70
(6.699314) can0 17C#00000000B8800AF5
(6.709240) can0 290#0010000000000000
(6.709402) can0 12E#0000000000000040
(6.709573) can0 174#F57F00008C6A0B66
(6.709735) can0 178#E47F0000CF950B2F
(6.719469) can0 174#F57F0000876A0CB5
(6.719635) can0 178#EC7F0120CD950C8D
(6.719796) can0 17C#00000000A7800C25
(6.729712) can0 12C#0000000000000000
(6.729834) can0 5A0#0069200000000069
(6.729981) can0 550#0000000000000060
(6.730144) can0 300#0F00000000000000
(6.730267) can0 174#FA7F0000866A0D7B
(6.739955) can0 174#F87F0000866A0EE6
(6.740116) can0 178#E17F0326C7950EE3
(6.740278) can0 17C#0000000096800EB8
(6.750198) can0 290#0020000000000000
(6.750400) can0 174#EF7F00007B6A0FC1
(6.750583) can0 178#D97F0425C7950F4B
(6.760454) can0 17C#000000009C800FAA
(6.760622) can0 290#0010000000000000
(6.760785) can0 174#EA7F0000716A0041
(6.760947) can0 178#DC7F0520CA9500F8
(6.770691) can0 17C#00000000A18000BC
(6.770858) can0 290#0030000000000000
(6.771021) can0 174#E77F0000746A0133
(6.780934) can0 178#E47F0621CA9501C2
(6.781102) can0 17C#0000000099800185
(6.781265) can0 550#0000000000000080
(6.791177) can0 174#EF7F00007E6A02C9
(6.791338) can0 178#F27F0721CA9502E5
(6.791515) can0 17C#0000000090800221
(6.801433) can0 174#F57F00007F6A038A
(6.801605) can0 178#FD7F0820C79503C0
(6.801773) can0 17C#000000008B8003A4
(6.801936) can0 174#F87F00007E6A04B0
(6.811663) can0 178#F87F0925C595041D
(6.811833) can0 17C#000000008B8004F7
(6.811996) can0 174#EF7F0000846A051D
(6.821906) can0 178#F27F0A29CC950587
(6.822076) can0 17C#00000000938005FE
(6.822238) can0 174#EC7F0000916A064C
(6.832148) can0 178#EC7F0000D09506E2
(6.832310) can0 17C#00000000A18006F2
(6.832479) can0 290#0010000000000000
(6.842391) can0 300#0F00000000000000
(6.842522) can0 174#EA7F0000986A0701
(6.842668) can0 178#E77F0120D09507EA
(6.842830) can0 174#EF7F0000956A080B
(6.852648) can0 178#EC7F0000D0950844
(6.852810) can0 17C#00000000B580084A
(6.852972) can0 290#0030000000000000
(6.853135) can0 12B#0000000000013FF5
(6.853256) can0 174#F57F00008C6A095C
(6.862879) can0 178#EC7F0120D295097A
(6.863048) can0 17C#00000000B5800957
(6.863239) can0 290#0020000000000000
(6.873120) can0 174#FA7F0000826A0A2E
(6.873282) can0 178#EF7F0221D4950A9C
(6.873443) can0 17C#00000000A7800A6B
(6.883363) can0 290#0020000000000000
(6.883493) can0 12B#0000000000013FF5
(6.883599) can0 174#F87F0000816A0B05
(6.883745) can0 178#F57F0324D0950BEF
(6.883907) can0 17C#000000009B800B54
(6.893606) can0 290#0010000000000000
(6.893769) can0 174#EF7F0000826A0CED
(6.893931) can0 178#0080042FCD950C98
(6.903870) can0 17C#000000008E800C96
(6.904032) can0 174#E77F0000816A0DAE
(6.904194) can0 178#FA7F0512CA950D8D
(6.904355) can0 17C#000000008E800D8B
(6.914092) can0 290#0040000000000000
(6.914255) can0 12B#0000000000014FF4
(6.914417) can0 174#E17F0000816A0E5A
(6.924328) can0 178#E77F0624C5950ECB
(6.924494) can0 17C#0000000099800E3E
(6.924656) can0 290#0030000000000000
(6.934570) can0 12B#0000000000013FF5
(6.934733) can0 174#E47F0000826A0FFF
(6.934894) can0 178#D07F0726C4950F4C
(6.944851) can0 17C#00000000A1800F07
(6.945030) can0 174#EA7F0000896A00C5
(6.945192) can0 178#CB7F0820C79500E2
(6.955057) can0 17C#00000000A98000B0
(6.955226) can0 300#0F00000000000000
(6.955349) can0 174#F27F0000926A012B
(6.955503) can0 178#D37F0925C9950124
(6.965313) can0 174#F57F0000926A0282
(6.965479) can0 178#E47F0000C295025F
(6.965641) can0 17C#00000000D58002C8
(6.965804) can0 290#0030000000000000
(6.965926) can0 12B#0000000000014FF4
(6.975544) can0 128#1388030000EC7842
(6.975705) can0 174#F87F0000876A03E8
(6.975867) can0 178#E77F0125BE950314
(6.985786) can0 17C#00000000D58003D5
(6.985948) can0 178#D97F0239BF950456
(6.986109) can0 17C#00000000BA800450
(6.996029) can0 290#0030000000000000
(6.996151) can0 17C#00000000A480055C
(6.996297) can0 290#0030000000000000
(6.996419) can0 12B#0000000000013FF4
(6.996574) can0 12A#1228012000000000
(6.996694) can0 450#0000000000000000
(6.996801) can0 290#0040000000000000
(7.006272) can0 12B#0000000000014FF4
(7.006432) can0 290#0020000000000000
(7.006600) can0 12B#0000000000014FF4
(7.006720) can0 174#F27F00008F6A0843
(7.016530) can0 178#DC7F0000C7950800
(7.016691) can0 290#0020000000000000
(7.016813) can0 12B#0000000000013FF4
(7.016965) can0 128#1388030000EC78A2
(7.017126) can0 12E#00000000000000A0
(7.026758) can0 290#0010000000000000
(7.026920) can0 12B#0000000000014FF4
(7.027081) can0 174#F87F00008D6A0A12
(7.037001) can0 290#0040000000000000
(7.037163) can0 12B#0000000000014FF4
(7.037284) can0 128#1388030000EC78C2
(7.037428) can0 290#0020000000000000
(7.047243) can0 12B#0000000000013FF4
(7.047405) can0 174#F57F0000916A0CA8
(7.047574) can0 178#03800420CA950C9D
(7.057494) can0 290#0050000000000000
(7.057657) can0 12B#0000000000014FF4
(7.057820) can0 128#1388030000EC7822
(7.067743) can0 12E#0000000000000020
(7.067905) can0 290#0030000000000000
(7.068075) can0 12B#0000000000013FF4
(7.068237) can0 174#EF7F00008C6A0EDE
(7.077972) can0 178#EF7F0632BE950E9D
(7.078140) can0 290#0010000000000000
(7.078309) can0 12B#0000000000014FF4
(7.088215) can0 128#1388030000EC7842
(7.088383) can0 290#0030000000000000
(7.088560) can0 12B#0000000000014FF4
(7.088681) can0 12A#1228012000000000
(7.088786) can0 290#0020000000000000
(7.098458) can0 12B#0000000000013FF4
(7.098640) can0 128#1388030000EC7862
(7.098801) can0 290#0010000000000000
