(0.371520) can0 174#FA7F00008F6A0637
(0.372160) can0 178#FD7F0624D79506E9
(0.372316) can0 17C#00000000E97F06DF
(0.372479) can0 290#0000000000000000
(0.372634) can0 12B#0000000000000000
(0.372798) can0 128#7FFF0300007FFF5F
(0.372965) can0 12E#4000000000000040
(0.373136) can0 174#FD7F0000816A07AD
(0.373305) can0 178#00800726DA95077A
(0.373463) can0 17C#00000000DF7F07EF
(0.373623) can0 290#0000000000000000
(0.373741) can0 12B#0000000000000000
(0.373839) can0 12A#1208002000000000
(0.373987) can0 550#0000000000000080
(0.374150) can0 174#008000007B6A08D7
(0.374308) can0 178#06800820D7950882
(0.374536) can0 17C#00000000E47F08FC
(0.374694) can0 450#0000000000000000
(0.374860) can0 290#0000000000000000
(0.374986) can0 12B#0000000000000000
(0.375084) can0 128#7FFF0300007FFF7F
(0.375225) can0 12E#4000000000000060
(0.375379) can0 174#FD7F00007C6A0906
(0.375545) can0 178#0B800925CF9509D4
(0.375698) can0 17C#00000000ED7F0962
(0.375859) can0 290#0000000000000000
(0.375973) can0 12B#0000000000000000
(0.395428) can0 174#FA7F0000816A0AA2
(0.395935) can0 178#14800000C5950A9D
(0.396103) can0 17C#00000000E57F0A49
(0.396265) can0 290#0000000000000000
(0.396387) can0 12B#0000000000000000
(0.396499) can0 128#7FFF0300007FFF9F
(0.396644) can0 12E#4000000000000080
(0.396806) can0 174#F87F0000896A0B09
(0.396968) can0 178#22800125C2950BFC
(0.397129) can0 17C#00000000CC7F0BE7
(0.397291) can0 290#0000000000000000
(0.397413) can0 12B#0000000000000000
(0.398243) can0 174#F57F00008C6A0C35
(0.398438) can0 178#30800239C7950C6C
(0.398662) can0 17C#00000000BD7F0C73
(0.401280) can0 290#0000000000000000
(0.401535) can0 12B#0000000000000000
(0.401775) can0 128#7FFF0300007FFFBF
(0.402017) can0 12E#40000000000000A0
(0.402270) can0 12A#1208002000000000
(0.402521) can0 12C#0000000000000000
(0.402765) can0 5A0#0000000000000020
(0.403671) can0 550#00000000000000A0
(0.408192) can0 174#F57F0000916A0DB5
(0.408418) can0 178#30800321CF950DAE
(0.408668) can0 17C#00000000C37F0D2F
(0.408919) can0 450#0000000000000000
(0.411564) can0 290#0000000000000000
(0.411807) can0 12B#0000000000000000
(0.418196) can0 174#F87F0000986A0EF7
(0.418425) can0 178#2A800420CF950ECE
(0.418667) can0 17C#00000000D07F0E9C
(0.421255) can0 290#0000000000000000
(0.421502) can0 12B#0000000000000000
(0.421757) can0 128#7FFF0300007FFFDF
(0.421996) can0 12E#40000000000000C0
(0.428191) can0 174#FD7F0000986A0FDE
(0.428433) can0 178#2D800000CC950F2E
(0.428679) can0 17C#00000000D47F0F87
(0.431372) can0 290#0000000000000000
(0.431616) can0 12B#0000000000000000
(0.438203) can0 174#00800000926A002C
(0.438435) can0 178#38800000CD950097
(0.438678) can0 17C#00000000D97F00B9
(0.441272) can0 290#0000000000000000
(0.441520) can0 12B#0000000000000000
(0.441768) can0 128#7FFF0300007FFF3F
(0.442010) can0 12E#4000000000000020
(0.448191) can0 174#00800000876A01A0
(0.448421) can0 178#43800122D095012D
(0.448675) can0 17C#00000000DE7F012E
(0.451362) can0 290#0000000000000000
(0.451601) can0 12B#0000000000000000
(0.451851) can0 12A#1208002000000000
(0.453673) can0 550#00000000000000C0
(0.458188) can0 174#FA7F0000796A02CE
(0.458418) can0 178#43800220D0950293
(0.458666) can0 17C#00000000DC7F020A
(0.458916) can0 450#0000000000000000
(0.461498) can0 290#0000000000000000
(0.461740) can0 12B#0000000000000000
(0.461988) can0 128#7FFF0300007FFF5F
(0.462238) can0 12E#4000000000000040
(0.468191) can0 174#FA7F00006E6A0341
(0.468420) can0 178#40800332CA950316
(0.468674) can0 17C#00000000D37F0391
(0.471393) can0 290#0000000000000000
(0.471641) can0 12B#0000000000000000
(0.478190) can0 174#FA7F00006E6A0412
(0.478422) can0 178#3E800420CA950445
(0.478677) can0 17C#00000000CE7F045F
(0.481290) can0 290#0000000000000000
(0.481538) can0 12B#0000000000000000
(0.481778) can0 128#7FFF0300007FFF7F
(0.482024) can0 12E#4000000000000060
(0.488198) can0 174#FA7F00007B6A059E
(0.488425) can0 178#38800523CA95055B
(0.488670) can0 17C#00000000CC7F0541
(0.491378) can0 290#0000000000000000
(0.491619) can0 12B#0000000000000000
(0.498195) can0 174#F57F0000896A066E
(0.498424) can0 178#32800632C5950694
(0.498669) can0 17C#00000000C27F066F
(0.501288) can0 290#0000000000000000
(0.501528) can0 12B#0000000000000000
(0.501778) can0 128#7FFF0300007FFF9F
(0.502041) can0 12E#4000000000000080
(0.502271) can0 12A#1208002000000000
(0.502512) can0 12C#0000000000000000
(0.502769) can0 5A0#0000000000000040
(0.503688) can0 550#0000000000000020
(0.508191) can0 174#EF7F00008C6A072B
(0.508429) can0 178#40800721C19507C8
(0.508679) can0 17C#00000000B37F07B5
(0.508929) can0 450#0000000000000000
(0.511564) can0 290#0000000000000000
(0.511814) can0 12B#0000000000000000
(0.518197) can0 174#EA7F0000826A08AD
(0.518430) can0 178#5F800827BF9508C2
(0.518669) can0 17C#00000000A97F0819
(0.521302) can0 290#0000000000000000
(0.521558) can0 12B#0000000000000000
(0.521802) can0 128#7FFF0300007FFFBF
(0.522041) can0 12E#40000000000000A0
(0.528185) can0 174#EF7F00007B6A098F
(0.528423) can0 178#6A800000C19509B5
(0.528665) can0 17C#00000000A97F0904
(0.531397) can0 290#0000000000000000
(0.531635) can0 12B#0000000000000000
(0.538185) can0 174#EF7F00007B6A0AA8
(0.538441) can0 178#62800120C7950A65
(0.538659) can0 17C#00000000B27F0ABB
(0.541304) can0 290#0000000000000000
(0.541559) can0 12B#0000000000000000
(0.541804) can0 128#7FFF0300007FFFDF
(0.542046) can0 12E#40000000000000C0
(0.548191) can0 174#EF7F00007E6A0B3C
(0.548421) can0 178#51800000CC950BE9
(0.548667) can0 17C#00000000B27F0BA6
(0.551404) can0 290#0000000000000000
(0.551659) can0 12B#0000000000000000
(0.551897) can0 12A#1208002000000000
(0.553677) can0 550#0000000000000040
(0.558195) can0 174#F27F0000826A0CB2
(0.558430) can0 178#3E800112CF950CB3
(0.558672) can0 17C#00000000A97F0C6D
(0.558946) can0 450#0000000000000000
(0.561547) can0 290#0000000000000000
(0.561789) can0 12B#0000000000000000
(0.562032) can0 128#7FFF0300007FFF3F
(0.562281) can0 12E#4000000000000020
(0.568187) can0 174#F87F0000896A0D47
(0.568432) can0 178#3280020FD0950D5F
(0.568679) can0 17C#000000009F7F0D5D
(0.571383) can0 290#0000000000000000
(0.571629) can0 12B#0000000000000000
(0.578188) can0 174#FA7F00008A6A0E56
(0.578416) can0 178#38800302D0950E35
(0.578669) can0 17C#00000000977F0E76
(0.581276) can0 290#0000000000000000
(0.581520) can0 12B#0000000000000000
(0.581764) can0 128#7FFF0300007FFF5F
(0.582025) can0 12E#4000000000000040
(0.588188) can0 174#F57F0000866A0F1D
(0.588418) can0 178#49800405CC950F90
(0.588665) can0 17C#00000000997F0F62
(0.591403) can0 290#0000000000000000
(0.591660) can0 12B#0000000000000000
(0.598195) can0 174#EF7F0000816A00FD
(0.598428) can0 178#54800512C49500C3
(0.598671) can0 17C#00000000A57F00FB
(0.601318) can0 290#0000000000000000
(0.601574) can0 12B#0000000000000000
(0.601819) can0 128#7FFF0300007FFF7F
(0.602066) can0 12E#4000000000000060
(0.602308) can0 12A#1208002000000000
(0.602558) can0 12C#0000000000000000
(0.602811) can0 5A0#0000000000000060
(0.603679) can0 550#0000000000000060
(0.608184) can0 174#EF7F00007F6A0161
(0.608418) can0 178#4E800614B9950115
(0.608659) can0 17C#00000000AF7F01E9
(0.608920) can0 450#0000000000000000
(0.611620) can0 290#0000000000000000
(0.611859) can0 12B#0000000000000000
(0.618187) can0 174#F27F00007E6A0296
(0.618431) can0 178#4680072FB0950240
(0.618678) can0 17C#00000000A97F02CB
(0.621304) can0 290#0000000000000000
(0.621548) can0 12B#0000000000000000
(0.621792) can0 128#7FFF0300007FFF9F
(0.622038) can0 12E#4000000000000080
(0.628188) can0 174#F87F00007F6A036C
(0.628433) can0 178#49800802B0950378
(0.628672) can0 17C#00000000967F0378
(0.631373) can0 290#0000000000000000
(0.631629) can0 12B#0000000000000000
(0.638191) can0 174#FA7F0000796A0480
(0.638424) can0 178#4C80090FBE950433
(0.638671) can0 17C#00000000897F04B5
(0.641284) can0 290#0000000000000000
(0.641543) can0 12B#0000000000000000
(0.641787) can0 128#7FFF0300007FFFBF
(0.642026) can0 12E#40000000000000A0
(0.648187) can0 174#F87F0000736A0528
(0.648424) can0 178#4C800A13CD9505A3
(0.648666) can0 17C#00000000897F05A8
(0.651381) can0 290#0000000000000000
(0.651618) can0 12B#0000000000000000
(0.651859) can0 12A#1208002000000000
(0.653681) can0 550#0000000000000080
(0.658184) can0 174#F57F0000746A0663
(0.658430) can0 178#46800B03D4950638
(0.658676) can0 17C#00000000967F0611
(0.658923) can0 450#0000000000000000
(0.661505) can0 290#0000000000000000
(0.661757) can0 12B#0000000000000000
(0.662005) can0 128#7FFF0300007FFFDF
(0.662244) can0 12E#40000000000000C0
(0.668183) can0 174#EF7F00007C6A07A3
(0.668433) can0 178#3E800C08CA9507C3
(0.668672) can0 17C#00000000A27F0722
(0.671368) can0 290#0000000000000000
(0.671625) can0 12B#0000000000000000
(0.678194) can0 174#EF7F0000876A0810
(0.678434) can0 178#38800D2FC2950873
(0.678675) can0 17C#00000000AD7F081F
(0.681296) can0 290#0000000000000000
(0.681547) can0 12B#0000000000000000
(0.681789) can0 128#7FFF0300007FFF3F
(0.682047) can0 12E#4000000000000020
(0.688188) can0 174#F27F00008F6A095E
(0.688425) can0 178#3E800E07C1950959
(0.688674) can0 17C#00000000B07F099F
(0.691378) can0 290#0000000000000000
(0.691626) can0 12B#0000000000000000
(0.698187) can0 174#F87F0000946A0A89
(0.698423) can0 178#3E800F0DC7950AAA
(0.698662) can0 17C#00000000AC7F0AAA
(0.701323) can0 290#0000000000000000
(0.701570) can0 12B#0000000000000000
(0.701819) can0 128#7FFF0300007FFF5F
(0.702070) can0 12E#4000000000000040
(0.702314) can0 12A#1208002000000000
(0.702553) can0 12C#0000000000000000
(0.702817) can0 5A0#0000000000000080
(0.703681) can0 550#00000000000000A0
(0.708188) can0 174#FA7F0000946A0B2E
(0.708437) can0 178#38800002CF950B7C
(0.708672) can0 17C#00000000A57F0B34
(0.708920) can0 450#0000000000000000
(0.711610) can0 290#0000000000000000
(0.711857) can0 12B#0000000000000000
(0.718191) can0 174#FA7F0000946A0C7D
(0.718419) can0 178#2A800108D5950CEA
(0.718676) can0 17C#00000000A17F0C61
(0.721287) can0 290#0000000000000000
(0.721530) can0 12B#0000000000000000
(0.721782) can0 128#7FFF0300007FFF7F
(0.722024) can0 12E#4000000000000060
(0.728199) can0 174#FA7F0000916A0DE9
(0.728429) can0 178#22800000DE950D53
(0.728671) can0 17C#000000009A7F0DD4
(0.731368) can0 290#0000000000000000
(0.731606) can0 12B#0000000000000000
(0.738188) can0 174#00800000866A0E94
(0.738428) can0 178#22800128E3950E65
(0.738671) can0 17C#00000000977F0E76
(0.741312) can0 290#0000000000000000
(0.741559) can0 12B#0000000000000000
(0.741808) can0 128#7FFF0300007FFF9F
(0.742046) can0 12E#4000000000000080
(0.748199) can0 174#FA7F00007F6A0F4A
(0.748434) can0 178#24800220E2950F06
(0.748681) can0 17C#000000009F7F0F67
(0.751411) can0 290#0000000000000000
(0.751655) can0 12B#0000000000000000
(0.751908) can0 12A#1208002000000000
(0.753680) can0 550#00000000000000C0
(0.758194) can0 174#FA7F00007F6A00F1
(0.758438) can0 178#24800321D895006D
(0.758685) can0 17C#00000000B57F00E3
(0.758935) can0 450#0000000000000000
(0.761553) can0 290#0000000000000000
(0.761802) can0 12B#0000000000000000
(0.762042) can0 128#7FFF0300007FFFBF
(0.762285) can0 12E#40000000000000A0
(0.768191) can0 174#FA7F00007F6A01EC
(0.768421) can0 178#1C800423CD9501C9
(0.768674) can0 17C#00000000C57F01B6
(0.771382) can0 290#0000000000000000
(0.771628) can0 12B#0000000000000000
(0.778200) can0 174#FA7F00007C6A0247
(0.778433) can0 178#16800523C295026A
(0.778671) can0 17C#00000000C87F0214
(0.781294) can0 290#0000000000000000
(0.781550) can0 12B#0000000000000000
(0.781799) can0 128#7FFF0300007FFFDF
(0.782042) can0 12E#40000000000000C0
(0.788195) can0 174#EF7F00007E6A03D4
(0.788423) can0 178#1C800622C4950339
(0.788665) can0 17C#00000000BE7F0344
(0.791390) can0 290#0000000000000000
(0.791638) can0 12B#0000000000000000
(0.798188) can0 174#EA7F0000866A0437
(0.798416) can0 178#22800724CC9504B2
(0.798672) can0 17C#00000000B87F0412
(0.801291) can0 290#0000000000000000
(0.801534) can0 12B#0000000000000000
(0.801778) can0 128#7FFF0300007FFF3F
(0.802033) can0 12E#4000000000000020
(0.802275) can0 12A#1208002000000000
(0.802525) can0 12C#0000000000000000
(0.802777) can0 5A0#00000000000000A0
(0.803689) can0 550#0000000000000020
(0.808188) can0 174#E77F0000866A05CC
(0.808425) can0 178#1C800823CC9505F0
(0.808678) can0 17C#00000000C07F054B
(0.808930) can0 450#0000000000000000
(0.811586) can0 290#0000000000000000
(0.811829) can0 12B#0000000000000000
(0.818188) can0 174#F27F00007E6A06E2
(0.818423) can0 178#1F800920C7950660
(0.818674) can0 17C#00000000C87F0660
(0.821319) can0 290#0000000000000000
(0.821574) can0 12B#0000000000000000
(0.821824) can0 128#7FFF0300007FFF5F
(0.822066) can0 12E#4000000000000040
(0.828187) can0 174#FA7F00007C6A072E
(0.828429) can0 178#2A800A21C2950735
(0.828667) can0 17C#00000000C27F0772
(0.831494) can0 290#0000000000000000
(0.831745) can0 12B#0000000000000000
(0.838192) can0 174#F57F00008A6A0844
(0.838422) can0 178#35800B29BB950856
(0.838660) can0 17C#00000000AF7F081C
(0.841287) can0 290#0000000000000000
(0.841548) can0 12B#0000000000000000
(0.841782) can0 128#7FFF0300007FFF7F
(0.842024) can0 12E#4000000000000060
(0.848191) can0 174#EF7F0000976A0915
(0.848424) can0 178#32800000BE9509CE
(0.848670) can0 17C#00000000A27F0984
(0.851360) can0 290#0000000000000000
(0.851609) can0 12B#0000000000000000
(0.851850) can0 12A#1208002000000000
(0.853684) can0 550#0000000000000040
(0.858190) can0 174#EF7F00009A6A0AB7
(0.858435) can0 178#2A800000C7950A49
(0.858679) can0 17C#00000000A57F0A29
(0.858930) can0 450#0000000000000000
(0.861506) can0 290#0000000000000000
(0.861748) can0 12B#0000000000000000
(0.861995) can0 128#7FFF0300007FFF9F
(0.862237) can0 12E#4000000000000080
(0.868196) can0 174#F57F0000976A0BFE
(0.868426) can0 178#2A8000FFD0950B60
(0.868667) can0 17C#00000000AF7F0B3B
(0.871407) can0 290#0020000000000000
(0.871656) can0 12B#0000000000011006
(0.878198) can0 174#FD7F00008F6A0C6B
(0.878428) can0 178#2D800000D0950C1B
(0.878678) can0 17C#00000000BE7F0CFF
(0.881305) can0 290#0020000000000000
(0.881548) can0 12B#0000000000011006
(0.881795) can0 128#1388030000EC78A2
(0.882041) can0 12E#00000000000000A0
(0.888194) can0 174#00800000896A0D35
(0.888422) can0 178#32800120C7950D51
(0.888662) can0 17C#00000000C87F0DAF
(0.891388) can0 290#0000000000000000
(0.891629) can0 12B#0000000000011006
(0.898190) can0 174#FD7F00008C6A0EDD
(0.898418) can0 178#38800222C4950E0B
(0.898673) can0 17C#00000000BE7F0EC5
(0.901319) can0 290#0030000000000000
(0.901561) can0 12B#0000000000011006
(0.901799) can0 128#1388030000EC78C2
(0.902042) can0 12E#00000000000000C0
(0.902295) can0 12A#1208002000000000
(0.902546) can0 12C#0000000000000000
(0.902788) can0 5A0#00692000000000C9
(0.903684) can0 550#0000000000000060
(0.907601) can0 300#0F00000000000000
(0.908197) can0 174#FA7F00008F6A0FC2
(0.908429) can0 178#3B800326C4950FD5
(0.908668) can0 17C#00000000AF7F0F4F
(0.908918) can0 450#0000000000000000
(0.911592) can0 290#0010000000000000
(0.911837) can0 12B#0000000000011006
(0.918199) can0 174#FA7F00008F6A0079
(0.918432) can0 178#32800425CA950059
(0.918670) can0 17C#00000000AF7F00F4
(0.921269) can0 290#0000000000000000
(0.921517) can0 12B#0000000000011006
(0.921752) can0 128#1388030000EC7822
(0.922010) can0 12E#0000000000000020
(0.928196) can0 174#F57F0000916A0129
(0.928430) can0 178#2A800520CF95011F
(0.928670) can0 17C#00000000B27F0174
(0.931332) can0 290#0010000000000000
(0.931573) can0 12B#0000000000011006
(0.938192) can0 174#F27F00008D6A0292
(0.938428) can0 178#1F800621CF9502F9
(0.938682) can0 17C#00000000AD7F02CD
(0.941273) can0 290#0030000000000000
(0.941510) can0 12B#0000000000011007
(0.941741) can0 128#1388030000EC7842
(0.941999) can0 12E#0000000000000040
(0.948192) can0 174#F27F0000846A030C
(0.948426) can0 178#1F800721CC950302
(0.948678) can0 17C#00000000AF7F03D3
(0.951372) can0 290#0000000000000000
(0.951614) can0 12B#0000000000011006
(0.951868) can0 12A#1208012000000000
(0.953693) can0 550#0000000000000080
(0.958252) can0 174#FA7F0000796A0480
(0.958438) can0 178#2A800820CF9504DE
(0.958671) can0 17C#00000000BD7F049B
(0.958926) can0 450#0000000000000000
(0.961494) can0 290#0040000000000000
(0.961739) can0 12B#0000000000011006
(0.961969) can0 128#1388030000EC7862
(0.962227) can0 12E#0000000000000060
(0.968196) can0 174#FA7F0000766A051B
(0.968503) can0 178#2D800925D59505E3
(0.968688) can0 17C#00000000C67F054E
(0.971370) can0 290#0040000000000000
(0.971623) can0 12B#0000000000011006
(0.978187) can0 174#F57F00007C6A066F
(0.978416) can0 178#22800A29DA950672
(0.978731) can0 17C#00000000C27F066F
(0.981300) can0 290#0040000000000000
(0.981544) can0 12B#0000000000011006
(0.981789) can0 128#1388030000EC7882
(0.982036) can0 12E#0000000000000080
(0.988199) can0 174#F27F0000866A077B
(0.988434) can0 178#11800000DA9507B6
(0.988675) can0 17C#00000000AD7F07A4
(0.991375) can0 290#0030000000000000
(0.991619) can0 12B#0000000000011007
(0.998191) can0 174#EF7F00008D6A081F
(0.998429) can0 178#06800120D4950813
(0.998678) can0 17C#00000000977F0838
(1.001271) can0 290#0020000000000000
(1.001520) can0 12B#0000000000011006
(1.001753) can0 128#1388030000EC78A2
(1.002011) can0 12E#00000000000000A0
(1.002249) can0 12A#1208012000000000
(1.002510) can0 12C#0000000000000000
(1.002750) can0 5A0#0069200000000029
(1.003693) can0 550#00000000000000A0
(1.007607) can0 300#0F00000000000000
(1.008189) can0 174#F57F0000926A094D
(1.008420) can0 178#06800000CD9509B5
(1.008669) can0 17C#00000000907F09AF
(1.008918) can0 450#0000000000000000
(1.011556) can0 290#0060000000000000
(1.011793) can0 12B#0000000000011006
(1.018183) can0 174#F57F00008F6A0AF7
(1.018427) can0 178#06800120C2950A34
(1.018667) can0 17C#000000008E7F0A99
(1.021264) can0 290#0040000000000000
(1.021506) can0 12B#0000000000011006
(1.021733) can0 128#1388030000EC78C2
(1.021983) can0 12E#00000000000000C0
(1.028192) can0 174#F57F0000896A0BEF
(1.028429) can0 178#03800221BE950B7C
(1.028670) can0 17C#00000000907F0B95
(1.031364) can0 290#0020000000000000
(1.031607) can0 12B#0000000000011007
(1.038191) can0 174#FA7F0000826A0C60
(1.040223) can0 178#06800324BE950CA2
(1.040384) can0 17C#000000009A7F0CC9
(1.041288) can0 290#0040000000000000
(1.050466) can0 12B#0000000000011006
(1.050635) can0 128#1388030000EC7822
(1.050795) can0 12E#0000000000000020
(1.060709) can0 174#F57F0000826A0D21
(1.060871) can0 178#1180042FC7950D6E
(1.061039) can0 17C#000000009F7F0D5D
(1.070966) can0 290#0010000000000000
(1.071128) can0 12B#0000000000011006
(1.071249) can0 12A#1208012000000000
(1.071354) can0 550#00000000000000C0
(1.071517) can0 174#EF7F0000846A0ED2
(1.071686) can0 178#19800512D0950E43
(1.081195) can0 17C#00000000977F0E76
(1.081365) can0 450#0000000000000000
(1.081500) can0 290#0020000000000000
(1.081647) can0 12B#0000000000011006
(1.081776) can0 128#1388030000EC7842
(1.091438) can0 12E#0000000000000040
(1.091616) can0 174#F27F0000896A0F15
(1.091777) can0 178#19800624D4950FE0
(1.101681) can0 17C#000000008E7F0FF0
(1.101854) can0 290#0040000000000000
(1.102025) can0 12B#0000000000011006
(1.102147) can0 174#F87F0000866A0040
(1.111924) can0 178#14800726CD95006B
(1.112085) can0 17C#00000000807F0042
(1.112248) can0 290#0030000000000000
(1.122170) can0 12B#0000000000011006
(1.122291) can0 128#1388030000EC7862
(1.122436) can0 12E#0000000000000060
(1.122604) can0 174#F57F0000846A01B8
(1.122763) can0 178#16800820C295015F
(1.132426) can0 17C#000000007B7F0157
(1.132602) can0 290#0010000000000000
(1.132765) can0 12B#0000000000011007
(1.142653) can0 174#F27F00007F6A0219
(1.142815) can0 178#19800925BF950250
(1.142976) can0 17C#00000000907F0260
(1.152896) can0 290#0050000000000000
(1.153059) can0 12B#0000000000011006
(1.153221) can0 128#1388030000EC7882
(1.163139) can0 12E#0000000000000080
(1.163301) can0 12A#1208012000000000
(1.163422) can0 12C#0000000000000000
(1.163535) can0 5A0#0069200000000049
(1.163682) can0 550#0000000000000020
(1.173382) can0 300#0F00000000000000
(1.173512) can0 174#EF7F00007F6A035B
(1.173658) can0 178#0B800000C2950307
(1.173826) can0 17C#00000000BA7F0342
(1.183638) can0 450#0000000000000000
(1.183761) can0 290#0010000000000000
(1.183908) can0 12B#0000000000011006
(1.184029) can0 174#EF7F0000846A0400
(1.184175) can0 178#00800125C9950412
(1.184337) can0 17C#00000000DE7F0447
(1.193870) can0 290#0010000000000000
(1.193992) can0 12B#0000000000011006
(1.194097) can0 128#1388030000EC78A2
(1.194242) can0 12E#00000000000000A0
(1.194405) can0 174#F57F00008D6A054F
(1.204111) can0 178#03800239CF9505A4
(1.204272) can0 17C#00000000F27F0560
(1.204464) can0 290#0040000000000000
(1.214353) can0 12B#0000000000011007
(1.214524) can0 174#F87F0000946A0615
(1.214686) can0 178#06800321D5950673
(1.224596) can0 17C#00000000EC7F0656
(1.224759) can0 290#0020000000000000
(1.224921) can0 12B#0000000000011006
(1.234855) can0 128#1388030000EC78C2
(1.235016) can0 12E#00000000000000C0
(1.235178) can0 174#F57F0000946A07EE
(1.235340) can0 178#00800420DA9507AD
(1.245082) can0 17C#00000000CE7F0778
(1.245244) can0 290#0040000000000000
(1.245407) can0 12B#0000000000011006
(1.245535) can0 12A#1208012000000000
(1.245640) can0 550#0000000000000040
(1.255325) can0 174#F87F00008F6A082B
(1.255494) can0 178#F87F0000DA95089B
(1.255656) can0 17C#00000000AA7F0895
(1.265570) can0 450#0000000000000000
(1.265692) can0 290#0030000000000000
(1.265841) can0 12B#0000000000011006
(1.265963) can0 128#1388030000EC7822
(1.266108) can0 12E#0000000000000020
(1.275813) can0 174#FD7F0000846A0982
(1.275974) can0 178#F87F0000D7950903
(1.276150) can0 17C#000000008C7F09BD
(1.286068) can0 290#0020000000000000
(1.286230) can0 12B#0000000000011006
(1.286352) can0 174#FA7F0000786A0AA9
(1.286506) can0 178#08800122D8950A05
(1.286668) can0 17C#00000000837F0A1C
(1.296297) can0 290#0050000000000000
(1.296460) can0 12B#0000000000011006
(1.296586) can0 128#1388030000EC7842
(1.296731) can0 12E#0000000000000040
(1.306541) can0 174#EF7F0000716A0BBA
(1.306703) can0 178#0E800220D7950BD4
(1.306865) can0 17C#000000008E7F0B84
(1.316783) can0 290#0020000000000000
(1.316946) can0 12B#0000000000011006
(1.317067) can0 174#EC7F0000706A0C81
(1.317213) can0 178#03800332D2950C80
(1.327026) can0 17C#00000000A27F0CED
(1.327188) can0 290#0040000000000000
(1.327351) can0 12B#0000000000011006
(1.327479) can0 128#1388030000EC7862
(1.337269) can0 12E#0000000000000060
(1.337431) can0 12A#1208012000000000
(1.337558) can0 12C#0000000000000000
(1.337664) can0 5A0#0069200000000069
(1.337812) can0 550#0000000000000060
(1.347527) can0 300#0F00000000000000
(1.347649) can0 174#EC7F0000716A0D13
(1.347795) can0 178#EC7F0420CD950D4F
(1.347964) can0 17C#00000000A77F0D79
(1.348147) can0 450#0000000000000000
(1.348278) can0 290#0020000000000000
(1.357758) can0 12B#0000000000011006
(1.357884) can0 174#F27F00007B6A0E83
(1.358030) can0 178#E17F0523C4950EDD
(1.358201) can0 17C#000000009C7F0EF6
(1.367998) can0 290#0000000000000000
(1.368167) can0 12B#0000000000011006
(1.368328) can0 128#1388030000EC7882
(1.368513) can0 12E#0000000000000080
(1.378246) can0 174#F57F0000846A0F1E
(1.378416) can0 178#E17F0632B9950F0B
(1.378582) can0 17C#00000000947F0FE7
(1.388497) can0 290#0010000000000000
(1.388668) can0 12B#0000000000011006
(1.388790) can0 174#F87F0000866A0040
(1.388935) can0 178#EF7F0721BF950041
(1.398746) can0 17C#00000000937F00D6
(1.398909) can0 290#0030000000000000
(1.399071) can0 12B#0000000000011006
(1.399193) can0 128#1388030000EC78A2
(1.399338) can0 12E#00000000000000A0
(1.408975) can0 174#FA7F0000846A01E4
(1.409137) can0 178#F87F0827D09501A8
(1.409298) can0 17C#00000000977F01CD
(1.419213) can0 290#0010000000000000
(1.419375) can0 12B#0000000000011006
(1.419505) can0 12A#1208012000000000
(1.419610) can0 550#0000000000000080
(1.419757) can0 174#F57F0000876A0213
(1.429455) can0 178#F87F0000DA950249
(1.429622) can0 17C#000000009E7F0269
(1.429784) can0 450#0000000000000000
(1.429906) can0 290#0030000000000000
(1.439699) can0 12B#0000000000011006
(1.439820) can0 128#1388030000EC78C2
(1.439966) can0 12E#00000000000000C0
(1.440128) can0 174#F27F00008C6A0300
(1.449955) can0 178#EF7F0120D79503C6
(1.450116) can0 17C#00000000A47F0353
(1.450279) can0 290#0040000000000000
(1.450441) can0 12B#0000000000011006
(1.450571) can0 174#EF7F00008F6A0480
(1.460184) can0 178#EF7F0000CA950428
(1.460346) can0 17C#00000000AD7F0483
(1.460517) can0 290#0030000000000000
(1.470427) can0 12B#0000000000011006
(1.470554) can0 128#1388030000EC7822
(1.470699) can0 12E#0000000000000020
(1.470863) can0 174#EC7F00008D6A0579
(1.480670) can0 178#EF7F0112BE950513
(1.480832) can0 17C#00000000B27F0500
(1.480995) can0 290#0030000000000000
(1.481117) can0 12B#0000000000011006
(1.481222) can0 174#EA7F00008A6A0607
(1.490913) can0 178#EF7F020FB1950666
(1.491075) can0 17C#00000000AC7F0636
(1.491237) can0 290#0020000000000000
(1.501159) can0 12B#0000000000011006
(1.501289) can0 128#1388030000EC7842
(1.501434) can0 12E#0000000000000040
(1.501611) can0 12A#1208012000000000
(1.501746) can0 12C#0000000000000000
(1.501854) can0 5A0#0069200000000089
(1.502006) can0 550#00000000000000A0
(1.511415) can0 300#0F00000000000000
(1.511549) can0 174#F27F0000876A07F4
(1.511695) can0 178#EC7F0302AE950727
(1.511865) can0 17C#00000000A77F07AB
(1.521642) can0 450#0000000000000000
(1.521773) can0 290#0020000000000000
(1.521879) can0 12B#0000000000011006
(1.522031) can0 174#FD7F0000846A089F
(1.522193) can0 178#E17F0405B795081E
(1.522354) can0 17C#00000000B07F0882
(1.531888) can0 290#0050000000000000
(1.532051) can0 12B#0000000000011006
(1.532172) can0 128#1388030000EC7862
(1.532317) can0 12E#0000000000000060
(1.542128) can0 174#03800000826A0926
(1.542290) can0 178#D67F0512C79509A8
(1.542451) can0 17C#00000000C07F09D7
(1.552371) can0 290#0010000000000000
(1.552540) can0 12B#0000000000011006
(1.552661) can0 174#03800000846A0A04
(1.552808) can0 178#C57F0614D0950A94
(1.562627) can0 17C#00000000C37F0A7C
(1.562790) can0 290#0020000000000000
(1.562952) can0 12B#0000000000011006
(1.563074) can0 128#1388030000EC7882
(1.563226) can0 12E#0000000000000080
(1.572859) can0 174#FA7F00008C6A0B3A
(1.573020) can0 178#C27F072FD2950B27
(1.573182) can0 17C#00000000BA7F0BAA
(1.583100) can0 290#0030000000000000
(1.583263) can0 12B#0000000000011006
(1.583384) can0 12A#1208012000000000
(1.583494) can0 550#00000000000000C0
(1.583641) can0 174#F87F00008F6A0C5F
(1.593343) can0 178#C87F0802CA950C71
(1.593510) can0 17C#00000000B07F0CF6
(1.593672) can0 450#0000000000000000
(1.593795) can0 290#0020000000000000
(1.603586) can0 12B#0000000000011006
(1.603715) can0 128#1388030000EC78A2
(1.603863) can0 12E#00000000000000A0
(1.604025) can0 174#F57F00008A6A0D2D
(1.613844) can0 178#D67F090FC4950DF8
(1.614006) can0 17C#00000000B27F0DE8
(1.614168) can0 290#0050000000000000
(1.614331) can0 12B#0000000000011005
(1.624072) can0 174#F57F0000896A0E86
(1.624233) can0 178#E77F0A13C7950E91
(1.624395) can0 17C#00000000BA7F0EC3
(1.634315) can0 290#0040000000000000
(1.634485) can0 12B#0000000000011006
(1.634647) can0 128#1388030000EC78C2
(1.644559) can0 12E#00000000000000C0
(1.644728) can0 174#F57F0000846A0F1E
(1.644915) can0 178#E47F0B03CC950FA4
(1.654801) can0 17C#00000000BA7F0FDE
(1.654963) can0 290#0010000000000000
(1.655126) can0 12B#0000000000011006
(1.655247) can0 174#F57F00007C6A0021
(1.665057) can0 178#DC7F0C08CF9500BA
(1.665219) can0 17C#00000000B07F006A
(1.665381) can0 290#0010000000000000
(1.665511) can0 12B#0000000000011005
(1.665658) can0 128#1388030000EC7822
(1.675286) can0 12E#0000000000000020
(1.675449) can0 12A#1208012000000000
(1.675576) can0 12C#0000000000000000
(1.675682) can0 5A0#00692000000000A9
(1.675830) can0 550#0000000000000020
(1.685531) can0 300#0F00000000000000
(1.685653) can0 174#F57F0000796A01B5
(1.685835) can0 178#DC7F0D2FD09501ED
(1.686008) can0 17C#00000000A27F016C
(1.695772) can0 450#0000000000000000
(1.695899) can0 290#0030000000000000
(1.696046) can0 12B#0000000000011006
(1.696208) can0 174#F87F00007E6A02FE
(1.706015) can0 178#E47F0E07D49502A0
(1.706177) can0 17C#000000009E7F0269
(1.706339) can0 290#0020000000000000
(1.716258) can0 12B#0000000000011005
(1.716420) can0 128#1388030000EC7842
(1.716586) can0 12E#0000000000000040
(1.726516) can0 174#FA7F0000826A03DB
(1.726678) can0 178#F27F0F0DD4950306
(1.726842) can0 17C#00000000A57F03DC
(1.727005) can0 290#0040000000000000
(1.736744) can0 12B#0000000000011005
(1.736866) can0 174#FA7F0000866A048E
(1.737011) can0 178#FA7F0002D0950495
(1.737173) can0 17C#00000000B87F0412
(1.746987) can0 290#0040000000000000
(1.747109) can0 12B#0000000000011005
(1.747215) can0 128#1388030000EC7862
(1.747360) can0 12E#0000000000000060
(1.747531) can0 174#F57F0000896A0549
(1.757230) can0 178#EF7F0108CF95054A
(1.757392) can0 17C#00000000D07F0553
(1.757562) can0 290#0030000000000000
(1.767479) can0 12B#0000000000011006
(1.767642) can0 12A#1208012000000000
(1.767763) can0 550#0000000000000040
(1.767910) can0 174#F57F00008C6A06E7
(1.777730) can0 178#DC7F0000CD9506A9
(1.777892) can0 17C#00000000D97F06F7
(1.778054) can0 450#0000000000000000
(1.778183) can0 290#0040000000000000
(1.778330) can0 12B#0000000000011005
(1.787968) can0 128#1388030000EC7882
(1.788129) can0 12E#0000000000000080
(1.788298) can0 174#FA7F00008D6A0729
(1.798209) can0 178#CE7F0128D0950796
(1.798371) can0 17C#00000000DB7F07E9
(1.798548) can0 290#0010000000000000
(1.808451) can0 12B#0000000000011005
(1.808577) can0 174#F87F0000866A08A8
(1.808730) can0 178#CB7F0220D495083D
(1.808899) can0 17C#00000000D97F0851
(1.818694) can0 290#0030000000000000
(1.818860) can0 12B#0000000000011005
(1.818982) can0 128#1388030000EC78A2
(1.819127) can0 12E#00000000000000A0
(1.828944) can0 174#F27F00007B6A09D0
(1.829106) can0 178#D07F0321D295095E
(1.829267) can0 17C#00000000D07F09CF
(1.829430) can0 290#0020000000000000
(1.839174) can0 12B#0000000000011005
(1.839295) can0 174#F27F0000796A0AF4
(1.839441) can0 178#D07F0423CD950ACB
(1.839611) can0 17C#00000000C57F0A79
(1.849417) can0 290#0040000000000000
(1.849587) can0 12B#0000000000011005
(1.849709) can0 128#1388030000EC78C2
(1.849859) can0 12E#00000000000000C0
(1.859660) can0 12A#1208012000000000
(1.859817) can0 12C#0000000000000000
(1.859931) can0 5A0#00692000000000C9
(1.860082) can0 550#0000000000000060
(1.860245) can0 300#0F00000000000000
(1.860372) can0 174#F87F00007F6A0B84
(1.869903) can0 178#CE7F0523C9950B02
(1.870068) can0 17C#00000000C67F0BE8
(1.870231) can0 450#0000000000000000
(1.870353) can0 290#0040000000000000
(1.870459) can0 12B#0000000000011005
(1.870570) can0 174#F87F0000826A0CDA
(1.880148) can0 178#CE7F0622C7950C7B
(1.880310) can0 17C#00000000CC7F0CB4
(1.880479) can0 290#0040000000000000
(1.880601) can0 12B#0000000000011005
(1.880707) can0 128#1388030000EC7822
(1.880857) can0 12E#0000000000000020
(1.890404) can0 174#F57F0000846A0D24
(1.890574) can0 178#CE7F0724CA950DE0
(1.890735) can0 17C#00000000D67F0DBE
(1.900632) can0 290#0040000000000000
(1.900754) can0 12B#0000000000011005
(1.900859) can0 174#F27F0000816A0E04
(1.901006) can0 178#D37F0823C9950E9C
(1.901167) can0 17C#00000000DB7F0E1C
(1.910876) can0 290#0010000000000000
(1.911039) can0 12B#0000000000011005
(1.911160) can0 128#1388030000EC7842
(1.911305) can0 12E#0000000000000040
(1.921117) can0 174#EF7F00007B6A0FC1
(1.921287) can0 178#DC7F0920C7950F04
(1.921449) can0 17C#00000000D17F0F0E
(1.931366) can0 290#0040000000000000
(1.931536) can0 12B#0000000000011005
(1.931666) can0 12A#1208012000000000
(1.931771) can0 550#0000000000000080
(1.931919) can0 174#EF7F0000736A0076
(1.941617) can0 178#E17F0A21CC95002C
(1.941786) can0 17C#00000000C07F0022
(1.941948) can0 450#0000000000000000
(1.942077) can0 290#0050000000000000
(1.942224) can0 12B#0000000000011005
(1.942346) can0 128#1388030000EC7862
(1.951853) can0 12E#0000000000000060
(1.952016) can0 174#F57F0000716A01B9
(1.952177) can0 178#D67F0B29D295018E
(1.962089) can0 17C#00000000BA7F0178
(1.962259) can0 290#0000000000000000
(1.962422) can0 12B#0000000000011005
(1.962551) can0 174#FA7F0000796A02CE
(1.972332) can0 178#C27F0000D29502FB
(1.972502) can0 17C#00000000C57F0291
(1.972664) can0 290#0030000000000000
(1.982576) can0 12B#0000000000011004
(1.982739) can0 128#1388030000EC7882
(1.982900) can0 12E#0000000000000080
(1.992834) can0 174#FA7F00007F6A03D6
(1.992995) can0 178#B47F0000CF9503A0
(1.993157) can0 17C#00000000D67F0318
(1.993319) can0 290#0050000000000000
(2.003061) can0 12B#0000000000011005
(2.003222) can0 174#FA7F00007C6A0409
(2.003382) can0 178#BA7F00FFCD950457
(2.013304) can0 17C#00000000DF7F04C8
(2.013507) can0 290#0030000000000000
(2.013681) can0 12B#0000000000011004
(2.023548) can0 128#1388030000EC78A2
(2.023713) can0 12E#00000000000000A0
(2.023875) can0 12A#1208012000000000
(2.023995) can0 12C#0000000000000000
(2.024101) can0 5A0#0069200000000029
(2.033790) can0 550#00000000000000A0
(2.033952) can0 300#0F00000000000000
(2.034074) can0 174#FA7F00007B6A059E
(2.034219) can0 178#CB7F0000D0950524
(2.044046) can0 17C#00000000DB7F05D3
(2.044208) can0 450#0000000000000000
(2.044330) can0 290#0050000000000000
(2.044485) can0 12B#0000000000011005
(2.044646) can0 174#F87F00007E6A068A
(2.054276) can0 178#CE7F0120D4950611
(2.054437) can0 17C#00000000CE7F0665
(2.054603) can0 290#0040000000000000
(2.064520) can0 12B#0000000000011004
(2.064682) can0 128#1388030000EC78C2
(2.064845) can0 12E#00000000000000C0
(2.074761) can0 174#F57F00007F6A07FE
(2.074923) can0 178#CE7F0222D4950795
(2.075091) can0 17C#00000000C87F077D
(2.085004) can0 290#0030000000000000
(2.085167) can0 12B#0000000000011004
(2.085288) can0 174#F57F0000816A08C4
(2.085433) can0 178#CE7F0326D8950800
(2.095247) can0 17C#00000000CB7F084A
(2.095409) can0 290#0010000000000000
(2.095576) can0 12B#0000000000011003
(2.105512) can0 128#1388030000EC7822
(2.105673) can0 12E#0000000000000020
(2.105836) can0 174#EF7F0000846A0981
(2.105998) can0 178#CB7F0425D795091E
(2.115733) can0 17C#00000000D07F09CF
(2.115896) can0 290#0000000000000000
(2.116059) can0 12B#0000000000011004
(2.125976) can0 12A#1208012000000000
(2.126097) can0 550#00000000000000C0
(2.126245) can0 174#EF7F0000896A0A23
(2.126406) can0 178#C27F0520CD950A18
(2.136219) can0 17C#00000000D07F0AE8
(2.136381) can0 450#0000000000000000
(2.136512) can0 290#0030000000000000
(2.136659) can0 12B#0000000000011004
(2.136780) can0 128#1388030000EC7842
(2.146462) can0 12E#0000000000000040
(2.146631) can0 174#F27F00008F6A0B64
(2.146793) can0 178#BA7F0621C1950BF6
(2.156719) can0 17C#00000000CB7F0B6D
(2.156888) can0 290#0010000000000000
(2.157051) can0 12B#0000000000011003
(2.157213) can0 174#F57F00008F6A0CB9
(2.166948) can0 178#BA7F0721BF950C8E
(2.167109) can0 17C#00000000CB7F0C3E
(2.167272) can0 290#0050000000000000
(2.177191) can0 12B#0000000000011003
(2.177312) can0 128#1388030000EC7862
(2.177457) can0 12E#0000000000000060
(2.177627) can0 174#F27F0000876A0D26
(2.187434) can0 178#C07F0820C5950D55
(2.187603) can0 17C#00000000D17F0D34
(2.187810) can0 290#0020000000000000
(2.197677) can0 12B#0000000000011003
(2.197802) can0 174#EF7F00007E6A0E55
(2.197948) can0 178#C57F0925CA950E79
(2.198109) can0 17C#00000000E17F0E3B
(2.207934) can0 290#0020000000000000
(2.208056) can0 12B#0000000000011003
(2.208168) can0 128#1388030000EC7882
(2.208313) can0 12E#0000000000000080
(2.208492) can0 12A#1208012000000000
(2.208613) can0 12C#0000000000000000
(2.208727) can0 5A0#0069200000000049
(2.208874) can0 550#0000000000000020
(2.218169) can0 300#0F00000000000000
(2.218292) can0 174#F57F00007B6A0F10
(2.218446) can0 178#CB7F0A29CC950F0C
(2.218630) can0 17C#00000000F27F0FB2
(2.228413) can0 450#0000000000000000
(2.228543) can0 290#0040000000000000
(2.228698) can0 12B#0000000000011003
(2.228819) can0 174#FA7F00007E6A007E
(2.228965) can0 178#D67F0000C7950080
(2.238656) can0 17C#00000000F87F0006
(2.238820) can0 290#0020000000000000
(2.238983) can0 12B#0000000000011003
(2.239104) can0 128#1388030000EC78A2
(2.248894) can0 12E#00000000000000A0
(2.249056) can0 174#FA7F00007F6A01EC
(2.249218) can0 178#D67F0120C59501BE
(2.259137) can0 17C#00000000ED7F018A
(2.259300) can0 290#0040000000000000
(2.259462) can0 12B#0000000000011003
(2.259590) can0 174#F87F00007B6A0277
(2.259734) can0 178#D07F0000C7950269
(2.269394) can0 17C#00000000D77F028A
(2.269563) can0 290#0040000000000000
(2.269685) can0 12B#0000000000011003
(2.269791) can0 128#1388030000EC78C2
(2.269936) can0 12E#00000000000000C0
(2.279621) can0 174#F57F00007C6A0306
(2.279782) can0 178#D37F0120C99503BA
(2.279944) can0 17C#00000000D07F031D
(2.289866) can0 290#0020000000000000
(2.290029) can0 12B#0000000000011003
(2.290150) can0 12A#1208012000000000
(2.290260) can0 550#0000000000000040
(2.290409) can0 174#F57F0000876A045D
(2.300107) can0 178#D07F0221C7950424
(2.300268) can0 17C#00000000D97F04CD
(2.300430) can0 450#0000000000000000
(2.300560) can0 290#0030000000000000
(2.310349) can0 12B#0000000000011003
(2.310478) can0 128#1388030000EC7822
(2.310624) can0 12E#0000000000000020
(2.310786) can0 174#F57F0000946A05D4
(2.320606) can0 178#CB7F0324C4950580
(2.320767) can0 17C#00000000DB7F05D3
(2.320930) can0 290#0030000000000000
(2.321052) can0 12B#0000000000011003
(2.321157) can0 174#F87F00009B6A0693
(2.321311) can0 178#C57F042FC5950604
(2.330838) can0 17C#00000000CC7F0666
(2.331000) can0 290#0040000000000000
(2.331163) can0 12B#0000000000011003
(2.331320) can0 128#1388030000EC7842
(2.341078) can0 12E#0000000000000040
(2.341249) can0 174#FA7F0000986A07B8
(2.341410) can0 178#C07F0512CD95076B
(2.351321) can0 17C#00000000BD7F07BC
(2.351500) can0 290#0010000000000000
(2.351670) can0 12B#0000000000011002
(2.361571) can0 174#008000008F6A0859
(2.361733) can0 178#BA7F0624D4950893
(2.361908) can0 17C#00000000B87F088E
(2.371838) can0 290#0010000000000000
(2.371969) can0 12B#0000000000011003
(2.372116) can0 128#1388030000EC7862
(2.372278) can0 12E#0000000000000060
(2.372441) can0 12A#1208012000000000
(2.372572) can0 12C#0000000000000000
(2.372679) can0 5A0#0069200000000069
(2.382056) can0 550#0000000000000060
(2.382219) can0 300#0F00000000000000
(2.382341) can0 174#FA7F0000866A090F
(2.382494) can0 178#B27F0726D2950914
(2.392293) can0 17C#00000000B57F0916
(2.392455) can0 450#0000000000000000
(2.392583) can0 290#0010000000000000
(2.392689) can0 12B#0000000000011002
(2.392836) can0 174#F27F0000826A0AFC
(2.402543) can0 178#B27F0820D0950A25
(2.402704) can0 17C#00000000C07F0AF0
(2.402875) can0 290#0040000000000000
(2.412779) can0 12B#0000000000011002
(2.412900) can0 128#1388030000EC7882
(2.413046) can0 12E#0000000000000080
(2.413208) can0 174#EF7F0000816A0B32
(2.423036) can0 178#C07F0925D4950B35
(2.423197) can0 17C#00000000D47F0BF3
(2.423359) can0 290#0020000000000000
(2.423530) can0 12B#0000000000011002
(2.423652) can0 174#F57F00007F6A0C31
(2.433265) can0 178#D97F0000D8950CDE
(2.433427) can0 17C#00000000E17F0C01
(2.433594) can0 290#0010000000000000
(2.443515) can0 12B#0000000000011002
(2.443637) can0 128#1388030000EC78A2
(2.443782) can0 12E#00000000000000A0
(2.443944) can0 174#F87F00007E6A0D45
(2.453756) can0 178#E77F0125D7950D61
(2.453918) can0 17C#00000000E57F0D1A
(2.454080) can0 290#0010000000000000
(2.454202) can0 12B#0000000000011002
(2.454308) can0 12A#1208012000000000
(2.454413) can0 550#0000000000000080
(2.463994) can0 174#FA7F00007C6A0EDB
(2.464155) can0 178#E17F0239D0950E56
(2.464317) can0 17C#00000000E77F0E3E
(2.474237) can0 450#0000000000000000
(2.474359) can0 290#0030000000000000
(2.474515) can0 12B#0000000000011002
(2.474636) can0 128#1388030000EC78C2
(2.474781) can0 12E#00000000000000C0
(2.484498) can0 174#FA7F00007C6A0FC6
(2.484659) can0 178#CB7F0321C5950F0E
(2.484826) can0 17C#00000000E47F0FAF
(2.484988) can0 290#0030000000000000
(2.485110) can0 12B#0000000000011002
(2.485251) can0 174#F87F00007F6A004B
(2.494723) can0 178#BD7F0420BB9500B9
(2.494888) can0 17C#00000000DF7F00BC
(2.495050) can0 290#0050000000000000
(2.504966) can0 12B#0000000000011002
(2.505087) can0 128#1388030000EC7822
(2.505232) can0 12E#0000000000000020
(2.505395) can0 174#F57F00007C6A013C
(2.515209) can0 178#B77F0000B395013F
(2.515378) can0 17C#00000000D77F01AD
(2.515548) can0 290#0040000000000000
(2.525451) can0 12B#0000000000011002
(2.525581) can0 174#F87F0000796A0274
(2.525727) can0 178#BD7F0000B995027F
(2.525889) can0 17C#00000000D07F0200
(2.535708) can0 290#0020000000000000
(2.535871) can0 12B#0000000000011002
(2.535993) can0 128#1388030000EC7842
(2.536138) can0 12E#0000000000000040
(2.536300) can0 12A#1228012000000000
(2.545937) can0 12C#0000000000000000
(2.546059) can0 5A0#0069200000000089
(2.546206) can0 550#00000000000000A0
(2.546369) can0 300#0F00000000000000
(2.546499) can0 174#FA7F0000796A03D3
(2.556180) can0 290#0030000000000000
(2.556343) can0 12B#0000000000011002
(2.556465) can0 174#FA7F0000796A0480
(2.556614) can0 178#C07F0220D895049E
(2.566423) can0 290#0020000000000000
(2.566594) can0 12B#0000000000011001
(2.566756) can0 128#1388030000EC7862
(2.576666) can0 12B#0000000000011002
(2.576829) can0 174#038000008A6A0691
(2.576991) can0 178#BD7F0420E295060C
(2.586923) can0 17C#00000000C27F066F
(2.587085) can0 290#0010000000000000
(2.587255) can0 128#1388030000EC7882
(2.587416) can0 12E#0000000000000080
(2.597152) can0 174#06800000926A07AC
(2.597314) can0 178#BD7F0523DB95076A
(2.597479) can0 17C#00000000C27F0772
(2.607395) can0 290#0020000000000000
(2.607573) can0 550#00000000000000C0
(2.607736) can0 174#00800000926A08C4
(2.617638) can0 178#C27F0632CF95089D
(2.617800) can0 12E#00000000000000A0
(2.617962) can0 174#F87F00008D6A0935
(2.627883) can0 178#CB7F0721C295097F
(2.628044) can0 17C#00000000CB7F0957
(2.628215) can0 174#F27F0000896A0A7C
(2.638127) can0 178#D07F0827BF950A0C
(2.638295) can0 17C#00000000D37F0A64
(2.638464) can0 174#EF7F00007F6A0BB3
(2.638629) can0 178#DC7F0000C1950B22
(2.648383) can0 17C#00000000D47F0BF3
(2.648559) can0 174#EF7F0000786A0C6A
(2.648729) can0 178#DE7F0120C7950CEE
(2.658610) can0 17C#00000000D67F0CA3
(2.658779) can0 290#0030000000000000
(2.658950) can0 550#0000000000000020
(2.668855) can0 300#0F00000000000000
(2.668978) can0 174#EF7F00007B6A0DFB
(2.669123) can0 174#EF7F0000826A0ED7
(2.669321) can0 178#BD7F0112C7950ECA
(2.679096) can0 17C#00000000E77F0E3E
(2.679262) can0 174#F57F00008C6A0F12
(2.679424) can0 178#A97F020FCA950F56
(2.689339) can0 17C#00000000F27F0FB2
(2.689506) can0 290#0020000000000000
(2.689669) can0 12B#0000000000011001
(2.699595) can0 174#F87F00008D6A00C0
(2.699757) can0 178#A47F0302D0950039
(2.699919) can0 17C#00000000EC7F0018
(2.700081) can0 290#0040000000000000
(2.709826) can0 174#FA7F0000896A0161
(2.709987) can0 178#A67F0405D4950167
(2.710149) can0 17C#00000000D67F0122
(2.720068) can0 290#0040000000000000
(2.720190) can0 12B#0000000000011001
(2.720295) can0 174#FA7F0000816A024A
(2.720441) can0 178#A97F0512D49502A7
(2.720611) can0 17C#00000000BB7F02D0
(2.730311) can0 174#FA7F00007E6A0359
(2.730479) can0 178#AC7F0614D4950359
(2.730641) can0 17C#00000000AF7F03D3
(2.740555) can0 174#FA7F0000816A0404
(2.740717) can0 178#B27F072FD0950497
(2.740878) can0 17C#00000000B57F0497
(2.750812) can0 174#FA7F0000866A0593
(2.750974) can0 178#BA7F0802CF9505BF
(2.751136) can0 17C#00000000BE7F050A
(2.751298) can0 290#0020000000000000
(2.761040) can0 174#F57F0000866A06E8
(2.761201) can0 178#C57F090FCA950660
(2.761363) can0 17C#00000000C97F06EF
(2.771282) can0 300#0F00000000000000
(2.771413) can0 174#F57F0000896A0773
(2.771566) can0 178#C57F0A13C79507B1
(2.771735) can0 17C#00000000D67F076C
(2.781535) can0 174#F57F00008C6A0841
(2.781696) can0 178#C57F0B03C49508C9
(2.781865) can0 17C#00000000E27F08F9
(2.791768) can0 174#FA7F00008F6A098C
(2.791930) can0 178#C27F0C08C59509F8
(2.792092) can0 17C#00000000E47F09E1
(2.802031) can0 290#0040000000000000
(2.802193) can0 174#F57F00008F6A0AF7
(2.802363) can0 178#B77F0D2FCC950AB4
(2.802541) can0 17C#00000000E27F0AC3
(2.812254) can0 290#0020000000000000
(2.812417) can0 12B#0000000000011001
(2.812546) can0 174#F57F0000926A0B77
(2.812692) can0 178#A47F0E07D0950B8D
(2.822502) can0 17C#00000000DE7F0BFC
(2.822664) can0 174#F57F0000956A0CAE
(2.822828) can0 178#967F0F0DCD950CFE
(2.832740) can0 17C#00000000D17F0C29
(2.832903) can0 450#0000000000000000
(2.833032) can0 174#F57F0000976A0DB0
(2.833177) can0 178#937F0002C5950DCF
(2.842983) can0 17C#00000000C67F0DA6
(2.843145) can0 174#F57F0000926A0E1E
(2.843307) can0 178#9B7F0108BE950E23
(2.853231) can0 17C#00000000C87F0E88
(2.853394) can0 290#0010000000000000
(2.853572) can0 174#F87F00008A6A0FF1
(2.863490) can0 178#A47F0000C2950F00
(2.863688) can0 17C#00000000D67F0F84
(2.863867) can0 174#FA7F0000816A0070
(2.864029) can0 178#A47F0128CD950081
(2.873712) can0 17C#00000000E57F009B
(2.873878) can0 290#0020000000000000
(2.874041) can0 174#F57F0000796A01B5
(2.883955) can0 178#987F0220D295014D
(2.884116) can0 17C#00000000E77F0185
(2.884278) can0 450#0000000000000000
(2.884401) can0 290#0030000000000000
(2.894198) can0 12B#0000000000011000
(2.894360) can0 174#E77F00007B6A0292
(2.894530) can0 178#8D7F0321D0950213
(2.904441) can0 17C#00000000E97F02AB
(2.904611) can0 290#0030000000000000
(2.904733) can0 12B#0000000000011000
(2.904839) can0 128#1388030000EC78C2
(2.904984) can0 17C#00000000EF7F03B3
(2.914697) can0 290#0020000000000000
(2.914863) can0 12B#0000000000011000
(2.914984) can0 174#E77F0000896A0457
(2.915137) can0 178#8A7F0523C995040E
(2.915299) can0 290#0010000000000000
(2.924927) can0 12B#0000000000011000
(2.925048) can0 128#1388030000EC7822
(2.925193) can0 12E#0000000000000020
(2.925356) can0 290#0020000000000000
(2.935170) can0 12B#0000000000011000
(2.935291) can0 12A#1228012000000000
(2.935396) can0 290#0030000000000000
(2.935551) can0 12B#0000000000011000
(2.935673) can0 128#1388030000EC7842
(2.935820) can0 12E#0000000000000040
(2.945413) can0 174#FA7F00008A6A07A3
(2.945582) can0 290#0040000000000000
(2.945744) can0 12B#0000000000011000
(2.945866) can0 174#F57F00008C6A0841
(2.955656) can0 178#967F0920D0950873
(2.955818) can0 17C#00000000F07F08E2
(2.955981) can0 290#0030000000000000
(2.965913) can0 12B#0000000000011000
(2.966034) can0 128#1388030000EC7862
(2.966180) can0 290#0030000000000000
(2.966302) can0 12B#0000000000011000
(2.966407) can0 174#EF7F0000846A0AA6
(2.966561) can0 178#887F0B29C1950AB3
(2.966723) can0 17C#00000000FA7F0AD7
(2.976141) can0 290#0010000000000000
(2.976304) can0 12B#0000000000011000
(2.976430) can0 128#1388030000EC7882
(2.976596) can0 12E#0000000000000080
(2.986384) can0 290#0020000000000000
(2.986555) can0 12B#0000000000011000
(2.986677) can0 174#FA7F0000786A0CE7
(2.986826) can0 178#887F0000C7950C7A
(2.996627) can0 290#0010000000000000
(2.996790) can0 12B#0000000000011000
(2.996912) can0 128#1388030000EC78A2
(2.997057) can0 12E#00000000000000A0
(3.006872) can0 174#FA7F0000736A0D7A
(3.007033) can0 178#907F00FFC9950DA3
(3.007193) can0 290#0000000000000000
(3.017116) can0 12B#0000000000011000
(3.017237) can0 174#FA7F0000766A0ED4
(3.017418) can0 178#967F0000C7950EF8
(3.017598) can0 290#0040000000000000
(3.017758) can0 12B#0000000000011000
(3.017879) can0 128#1388030000EC78C2
(3.027372) can0 290#0030000000000000
(3.027546) can0 12B#0000000000011000
(3.027667) can0 12A#1228012000000000
(3.027772) can0 12B#0000000000011000
(3.027877) can0 128#1388030000EC7822
(3.028022) can0 12E#0000000000000020
(3.037599) can0 174#F87F0000866A027A
(3.037760) can0 178#B47F0425C595029E
(3.037921) can0 17C#0000000043800215
(3.047844) can0 290#0020000000000000
(3.048006) can0 12B#0000000000011000
(3.048132) can0 128#1388030000EC7842
(3.048285) can0 12E#0000000000000040
(3.058085) can0 174#FA7F0000896A035B
(3.058255) can0 178#BA7F0520C595033B
(3.058422) can0 17C#000000005C800396
(3.068328) can0 290#0020000000000000
(3.068458) can0 174#FD7F0000866A0400
(3.068610) can0 178#C07F0621CA9504AD
(3.068779) can0 17C#000000005C8004C5
(3.078584) can0 290#0020000000000000
(3.078713) can0 12B#0000000000011000
(3.078819) can0 5A0#0069200000000069
(3.078966) can0 550#0000000000000060
(3.079128) can0 300#0F00000000000000
(3.079250) can0 174#00800000826A067A
(3.079396) can0 178#C87F0820D09506D9
(3.088818) can0 17C#000000000E800684
(3.088980) can0 290#0030000000000000
(3.089142) can0 174#00800000866A0761
(3.099057) can0 178#D97F0925D0950799
(3.099218) can0 17C#00000000FA7F0756
(3.099380) can0 290#0020000000000000
(3.109300) can0 12B#0000000000012000
(3.109462) can0 174#00800000916A0848
(3.109630) can0 178#DC7F0A29C59508EB
(3.119544) can0 17C#000000000680082E
(3.119707) can0 174#FD7F0000946A099A
(3.119869) can0 178#D07F0000BF9509E2
(3.129800) can0 17C#0000000026800903
(3.129962) can0 290#0040000000000000
(3.130125) can0 174#FA7F00008C6A0A27
(3.130286) can0 178#C57F0120C2950AA5
(3.140029) can0 17C#000000003A800A36
(3.140191) can0 450#0000000000000000
(3.140313) can0 290#0020000000000000
(3.140460) can0 12B#0000000000011000
(3.150272) can0 174#F57F00007F6A0B62
(3.150433) can0 178#C57F0000C7950B11
(3.150599) can0 17C#000000003D800BA1
(3.160516) can0 174#EF7F00007C6A0C6C
(3.160677) can0 178#D37F0120C4950C84
(3.160841) can0 17C#0000000038800C7B
(3.170758) can0 290#0030000000000000
(3.170920) can0 12B#0000000000011000
(3.171042) can0 174#EF7F00007E6A0D72
(3.171187) can0 178#E47F0221BE950DA5
(3.181014) can0 17C#000000002D800DF7
(3.181176) can0 290#0040000000000000
(3.181339) can0 12B#0000000000011000
(3.181511) can0 174#F57F00007C6A0E87
(3.181687) can0 178#F27F0324BB950ED8
(3.191243) can0 17C#0000000024800E53
(3.191414) can0 290#0010000000000000
(3.191583) can0 300#0F00000000000000
(3.191712) can0 174#FA7F00007E6A0FC5
(3.201494) can0 178#FA7F042FB7950F30
(3.201671) can0 17C#0000000021800FC7
(3.201842) can0 174#F87F0000866A0040
(3.211729) can0 178#FD7F0512B9950046
(3.211899) can0 17C#000000001F80005D
(3.212061) can0 174#F57F0000876A0134
(3.221972) can0 178#FA7F0624BE9501E7
(3.222142) can0 17C#000000001380014A
(3.222311) can0 290#0010000000000000
(3.222433) can0 174#FA7F0000816A024A
(3.232215) can0 178#F27F0726C4950218
(3.232377) can0 17C#0000000005800270
(3.232547) can0 290#0040000000000000
(3.242479) can0 12B#0000000000011000
(3.242601) can0 174#FA7F00007B6A03D0
(3.242746) can0 178#EA7F0820CF9503FB
(3.242908) can0 17C#000000000D800361
(3.243071) can0 290#0000000000000000
(3.252701) can0 12B#0000000000011FFF
(3.252864) can0 174#FA7F0000766A0406
(3.253034) can0 178#F27F0925D49504E2
(3.262944) can0 17C#0000000022800484
(3.263106) can0 450#0000000000000000
(3.263229) can0 174#FA7F0000796A059D
(3.263374) can0 178#F27F0000D295057E
(3.273192) can0 17C#000000003580050B
(3.273355) can0 174#FA7F00007C6A0633
(3.273530) can0 178#E77F0125CF9506BA
(3.283430) can0 17C#000000002A8006B2
(3.283614) can0 174#00800000816A07EB
(3.283787) can0 178#E47F0239D4950791
(3.293687) can0 17C#0000000005800719
(3.293858) can0 290#0020000000000000
(3.294020) can0 174#00800000866A08DA
(3.294182) can0 178#F57F0321D8950817
(3.303916) can0 17C#00000000F87F08EE
(3.304078) can0 300#0F00000000000000
(3.304200) can0 174#00800000846A09C4
(3.304346) can0 178#03800420D7950969
(3.314168) can0 174#F87F0000866A0A92
(3.314329) can0 178#06800000CF950A91
(3.314499) can0 17C#000000000B800A91
(3.324402) can0 174#EF7F00008A6A0BB2
(3.324571) can0 178#00800000CC950BD3
(3.324733) can0 17C#000000000B800B8C
(3.334645) can0 174#EC7F00008F6A0C8F
(3.334806) can0 178#F57F0122CA950C16
(3.334968) can0 17C#00000000FD7F0C13
(3.344904) can0 290#0030000000000000
(3.345067) can0 178#E17F0220CA950D42
(3.345228) can0 17C#00000000E17F0D1C
(3.345390) can0 290#0030000000000000
(3.345520) can0 17C#00000000CE7F0E8D
(3.355131) can0 450#0000000000000000
(3.355253) can0 290#0010000000000000
(3.355400) can0 290#0010000000000000
(3.355530) can0 12B#0000000000012000
(3.355676) can0 174#008000007C6A00B5
(3.365409) can0 178#C87F0523CD950018
(3.365598) can0 290#0000000000000000
(3.365761) can0 12B#0000000000011FFF
(3.375617) can0 128#1388030000EC78A2
(3.375781) can0 290#0030000000000000
(3.375944) can0 12B#0000000000011000
(3.385861) can0 541#0280000000000000
(3.386029) can0 290#0050000000000000
(3.386200) can0 12B#0000000000011FFF
(3.396105) can0 128#1388030000EC78C2
(3.396266) can0 12E#00000000000000C0
(3.396428) can0 290#0030000000000000
(3.396597) can0 12B#0000000000011000
(3.406361) can0 174#F57F0000796A04DC
(3.406531) can0 290#0010000000000000
(3.406694) can0 12B#0000000000011FFF
(3.416588) can0 128#1388030000EC7822
(3.416749) can0 12E#0000000000000020
(3.416912) can0 174#F57F00007E6A054B
(3.426833) can0 290#0020000000000000
(3.426996) can0 12B#0000000000011FFF
(3.427117) can0 174#EF7F00007C6A06BE
(3.427263) can0 290#0050000000000000
(3.437074) can0 12B#0000000000011000
(3.437236) can0 128#1388030000EC7842
(3.437397) can0 290#0010000000000000
(3.447318) can0 12B#0000000000012FFF
(3.447487) can0 12A#1228012000000000
(3.447608) can0 550#0000000000000080
(3.447762) can0 290#0020000000000000
(3.457575) can0 12B#0000000000011FFF
(3.457737) can0 128#1388030000EC7862
(3.457898) can0 290#0020000000000000
(3.458020) can0 12B#0000000000011FFF
(3.458126) can0 174#F27F0000816A0A70
(3.458278) can0 178#967F0405DA950A77
(3.467803) can0 12B#0000000000011FFF
(3.467925) can0 128#1388030000EC7882
(3.468070) can0 12E#0000000000000080
(3.468241) can0 541#0280000000000000
(3.468363) can0 120#0000000000000000
(3.478046) can0 121#0000000000000000
(3.478233) can0 12E#00000000000000A0
(3.478411) can0 12A#1228012000000000
(3.478540) can0 12C#0000000000000000
(3.478646) can0 5A0#0069200000000029
(3.488289) can0 120#0000000000000020
(3.488459) can0 121#0000000000000020
(3.488626) can0 129#0000000000000020
(3.498533) can0 174#F57F0000876A0E8F
(3.498712) can0 174#F57F00007C6A0F9A
(3.498874) can0 178#907F090FCF950F4F
(3.508789) can0 17C#0000000003800FF4
(3.508960) can0 120#0000000000000040
(3.509121) can0 121#0000000000000040
(3.509284) can0 129#0000000000000040
(3.519018) can0 174#F57F00007B6A00AB
(3.519180) can0 174#F57F00007E6A013F
(3.519349) can0 178#747F0B03CD950195
(3.529270) can0 17C#00000000148001C0
(3.529432) can0 129#0000000000000060
(3.529600) can0 550#10000000000000D0
(3.539512) can0 174#F57F0000816A0216
(3.539673) can0 174#F57F0000866A0381
(3.542855) can0 178#717F0D2FBF950329
(3.549751) can0 17C#000000001E8003F5
(3.549914) can0 290#0030000000000000
(3.550077) can0 174#F57F00008C6A04DD
(3.560003) can0 178#887F0E07B9950431
(3.560166) can0 17C#000000001B80042F
(3.560328) can0 174#F57F0000896A0549
(3.560494) can0 178#9B7F0F0DB6950525
(3.570233) can0 17C#0000000017800538
(3.570395) can0 290#0020000000000000
(3.570566) can0 174#FA7F0000826A06B2
(3.580480) can0 178#9B7F0002B6950616
(3.580642) can0 17C#00000000248006BB
(3.580804) can0 300#0F00000000000000
(3.580927) can0 174#F87F0000766A079B
(3.590719) can0 178#907F0108B9950769
(3.590881) can0 17C#00000000328007BB
(3.591044) can0 450#0000000000000000
(3.591166) can0 174#F27F0000736A08C1
(3.600962) can0 178#937F0000BB9508C0
(3.601124) can0 17C#000000003B800883
(3.601286) can0 290#0020000000000000
(3.601413) can0 12B#0000000000011FFF
(3.601538) can0 174#EF7F0000766A090A
(3.611205) can0 178#A17F0128BB95090D
(3.611367) can0 17C#00000000498009D5
(3.611538) can0 290#0020000000000000
(3.611668) can0 174#F27F0000796A0AF4
(3.621461) can0 178#A97F0220BB950ADA
(3.621638) can0 17C#0000000059800AEA
(3.621808) can0 290#0030000000000000
(3.621971) can0 12B#0000000000011FFE
(3.631696) can0 128#1388030000EC78C2
(3.631861) can0 174#FA7F00007E6A0BB1
(3.632022) can0 178#A67F0321BB950B6C
(3.641933) can0 17C#0000000050800B74
(3.642104) can0 290#0010000000000000
(3.642275) can0 174#FD7F00007F6A0CE3
(3.652176) can0 178#A17F0423C1950CDA
(3.652338) can0 17C#0000000030800C77
(3.652506) can0 174#FD7F0000846A0DF6
(3.662426) can0 178#A47F0523C7950D9C
(3.662595) can0 17C#0000000013800DD6
(3.662758) can0 290#0020000000000000
(3.672676) can0 12B#0000000000011FFE
(3.672798) can0 120#0000000000000060
(3.672952) can0 121#0000000000000060
(3.673122) can0 174#F57F00008C6A0E0F
(3.673284) can0 178#A67F0622CA950EA7
(3.682905) can0 17C#0000000013800EF1
(3.683075) can0 290#0000000000000000
(3.683238) can0 174#EC7F00008C6A0F24
(3.693153) can0 178#A47F0724CA950F03
(3.693316) can0 17C#000000002F800FCE
(3.693493) can0 290#0000000000000000
(3.693616) can0 174#E77F0000876A002A
(3.703391) can0 178#9E7F0823C4950087
(3.703561) can0 17C#000000004E8000AA
(3.703731) can0 290#0030000000000000
(3.713634) can0 300#0F00000000000000
(3.713757) can0 174#E77F0000816A0132
(3.713903) can0 178#907F0920C295014E
(3.714065) can0 174#F27F0000796A021C
(3.723892) can0 178#857F0A21C49502C2
(3.724145) can0 17C#0000000048800295
(3.724324) can0 290#0050000000000000
(3.724494) can0 12B#0000000000012FFE
(3.734120) can0 128#1388030000EC7882
(3.734281) can0 174#FD7F0000736A0352
(3.734443) can0 178#8A7F0B29CD9503F6
(3.744363) can0 17C#0000000040800384
(3.744534) can0 290#0050000000000000
(3.744656) can0 12B#0000000000011FFE
(3.744803) can0 120#00000000000000C0
(3.754606) can0 174#06800000766A041D
(3.754768) can0 178#987F0000D7950433
(3.754930) can0 17C#0000000049800454
(3.764851) can0 174#038000007B6A05B1
(3.765020) can0 178#9E7F0000D79505FD
(3.765213) can0 17C#000000005C8005D8
(3.775095) can0 290#0040000000000000
(3.775258) can0 174#FD7F0000826A063C
(3.775420) can0 178#9E7F00FFCD95066B
(3.775588) can0 17C#000000006C8006D7
(3.785351) can0 178#A17F0000C7950755
(3.785521) can0 17C#000000006D800745
(3.785684) can0 290#0010000000000000
(3.795578) can0 12B#0000000000011FFE
(3.795699) can0 17C#000000005B8008D3
(3.795848) can0 290#0030000000000000
(3.796011) can0 12B#0000000000012FFE
(3.805821) can0 128#1388030000EC7822
(3.805983) can0 12E#0000000000000020
(3.806145) can0 540#02000000110000E6
(3.816064) can0 174#EF7F0000896A0904
(3.816234) can0 290#0030000000000000
(3.816356) can0 12B#0000000000011FFD
(3.816510) can0 120#0000000000000060
(3.826307) can0 290#0030000000000000
(3.826429) can0 12B#0000000000012FFD
(3.826583) can0 128#1388030000EC7842
(3.826745) can0 290#0050000000000000
(3.836564) can0 12B#0000000000011FFE
(3.836727) can0 120#0000000000000080
(3.836889) can0 290#0040000000000000
(3.837052) can0 12B#0000000000011FFD
(3.846792) can0 128#1388030000EC7862
(3.846954) can0 290#0020000000000000
(3.847123) can0 12B#0000000000012FFD
(3.857035) can0 120#00000000000000A0
(3.857197) can0 121#00000000000000A0
(3.857360) can0 290#0000000000000000
(3.867278) can0 12B#0000000000011FFD
(3.867441) can0 128#1388030000EC7882
(3.867606) can0 12E#0000000000000080
(3.877523) can0 290#0040000000000000
(3.877686) can0 12B#0000000000011FFD
(3.877808) can0 12A#1228012000000000
(3.877913) can0 290#0000000000000000
(3.878061) can0 12B#0000000000012FFD
(3.887778) can0 128#1388030000EC78A2
(3.887939) can0 290#0010000000000000
(3.888102) can0 12B#0000000000011FFD
(3.888272) can0 120#0000000000000020
(3.898007) can0 121#0000000000000020
(3.898176) can0 290#0020000000000000
(3.898339) can0 12B#0000000000012FFD
(3.908265) can0 128#1388030000EC78C2
(3.909583) can0 12E#00000000000000C0
(3.909867) can0 540#02000000110000E7
(3.918506) can0 290#0020000000000000
(3.918633) can0 12B#0000000000011FFD
(3.918791) can0 120#0000000000000040
(3.918953) can0 121#0000000000000040
(3.928741) can0 290#0030000000000000
(3.928905) can0 12B#0000000000011FFD
(3.929031) can0 128#1388030000EC7822
(3.929178) can0 12B#0000000000012FFD
(3.938993) can0 120#0000000000000060
(3.939155) can0 121#0000000000000060
(3.939317) can0 128#1388030000EC7842
(3.939486) can0 12E#0000000000000040
(3.949222) can0 174#EA7F0000716A0712
(3.949384) can0 178#D07F0324BC950772
(3.949554) can0 120#0000000000000080
(3.959465) can0 121#0000000000000080
(3.959635) can0 129#0000000000000080
(3.959798) can0 174#F27F0000736A09DC
(3.969708) can0 178#F57F0512D89509BE
(3.969870) can0 17C#000000003D80099B
(3.970033) can0 290#0040000000000000
(3.979951) can0 12B#0000000000012FFD
(3.980072) can0 120#00000000000000A0
(3.980219) can0 121#00000000000000A0
(3.980381) can0 129#00000000000000A0
(3.990194) can0 174#F57F0000866A0B69
(3.990356) can0 178#06800726CD950BA7
(3.990526) can0 17C#0000000061800BD3
(4.000450) can0 290#0010000000000000
(4.000616) can0 129#00000000000000C0
(4.000777) can0 174#F57F00008C6A0C35
(4.000937) can0 178#00800820C9950C34
(4.010680) can0 174#EF7F0000926A0DE8
(4.010844) can0 178#F87F0925CA950D6E
(4.011012) can0 17C#0000000093800D16
(4.020923) can0 541#0280000000000000
(4.021045) can0 174#F57F0000926A0E1E
(4.021191) can0 178#FA7F0000C7950EF2
(4.021352) can0 17C#0000000093800E31
(4.031166) can0 300#0F00000000000000
(4.031288) can0 174#F87F00008D6A0F7B
(4.031441) can0 178#FD7F0125BF950FD6
(4.031619) can0 17C#000000008B800F38
(4.041409) can0 174#FA7F0000876A0075
(4.041584) can0 178#06800239BB9500B7
(4.041752) can0 17C#000000008880000F
(4.051670) can0 174#FA7F00007F6A01EC
(4.051833) can0 178#11800321BF950148
(4.052001) can0 17C#0000000083800192
(4.052163) can0 174#FA7F0000796A02CE
(4.061903) can0 178#22800420C795028C
(4.062065) can0 17C#000000006F80022F
(4.062234) can0 174#F57F0000736A0380
(4.072137) can0 178#22800000C595036D
(4.072299) can0 17C#000000005480039A
(4.072461) can0 290#0030000000000000
(4.082380) can0 12B#0000000000012FFC
(4.082557) can0 174#F57F0000746A0459
(4.082718) can0 178#11800000BE9504C7
(4.092623) can0 17C#000000004580045E
(4.092786) can0 450#0000000000000000
(4.092915) can0 290#0030000000000000
(4.094257) can0 174#F57F0000816A0545
(4.094534) can0 178#00800122B99505B3
(4.102882) can0 17C#00000000408005CA
(4.103060) can0 174#F57F0000916A067A
(4.103222) can0 178#FA7F0220B99506C5
(4.103384) can0 17C#000000003F800623
(4.113115) can0 174#FA7F00009D6A0731
(4.113276) can0 178#03800332BB95079C
(4.113445) can0 17C#000000004380077C
(4.123352) can0 174#00800000A26A08EC
(4.123523) can0 178#19800420BC950875
(4.123685) can0 17C#0000000048800847
(4.133595) can0 290#0030000000000000
(4.133718) can0 300#0F00000000000000
(4.133825) can0 174#FD7F00009B6A091C
(4.133971) can0 178#32800523C5950929
(4.134133) can0 174#F87F0000896A0A14
(4.143843) can0 178#3B800632CD950A8B
(4.144004) can0 17C#0000000053800AE5
(4.144167) can0 174#F57F0000766A0BE1
(4.154084) can0 178#30800721CF950B55
(4.154246) can0 17C#000000005F800BF2
(4.154408) can0 290#0000000000000000
(4.154578) can0 174#F87F0000706A0C51
(4.164340) can0 178#22800827CD950C13
(4.164510) can0 17C#0000000066800C0A
(4.164673) can0 174#FD7F0000766A0D7D
(4.174568) can0 178#14800000CA950D48
(4.174730) can0 17C#0000000064800D14
(4.174893) can0 290#0030000000000000
(4.184812) can0 174#FD7F0000826A0ED4
(4.184974) can0 178#0B800120C7950E2F
(4.185136) can0 17C#0000000056800E18
(4.195053) can0 450#0000000000000000
(4.195176) can0 290#0010000000000000
(4.195323) can0 12B#0000000000011FFD
(4.195493) can0 174#FA7F0000866A0F41
(4.205296) can0 178#0E800000BB950F64
(4.205458) can0 17C#0000000040800F18
(4.205627) can0 290#0020000000000000
(4.215554) can0 12B#0000000000012FFC
(4.215716) can0 174#FA7F0000866A00FA
(4.215879) can0 178#1C800112AE950025
(4.216041) can0 17C#000000002C8000F9
(4.225782) can0 290#0020000000000000
(4.225904) can0 12B#0000000000011FFC
(4.226051) can0 178#2780020FA895010A
(4.226213) can0 17C#0000000019800145
(4.236025) can0 290#0030000000000000
(4.236188) can0 17C#000000001380026D
(4.236350) can0 290#0040000000000000
(4.246268) can0 12B#0000000000011FFC
(4.246389) can0 450#0000000000000000
(4.246504) can0 290#0020000000000000
(4.246651) can0 12B#0000000000012FFC
(4.246814) can0 120#00000000000000C0
(4.256512) can0 290#0000000000000000
(4.256675) can0 12B#0000000000011FFC
(4.256846) can0 128#1388030000EC78A2
(4.266767) can0 290#0040000000000000
(4.266930) can0 12B#0000000000012FFD
(4.267093) can0 120#0000000000000020
(4.267255) can0 290#0030000000000000
(4.276996) can0 12B#0000000000011FFC
(4.277244) can0 174#EF7F00008A6A072E
(4.277426) can0 290#0030000000000000
(4.277556) can0 12B#0000000000012FFC
(4.287239) can0 12A#1228012000000000
(4.287360) can0 290#0010000000000000
(4.287516) can0 12B#0000000000011FFD
(4.287679) can0 128#1388030000EC7822
(4.297490) can0 12E#0000000000000020
(4.297653) can0 290#0050000000000000
(4.297817) can0 12B#0000000000012FFC
(4.307725) can0 120#0000000000000060
(4.307888) can0 290#0020000000000000
(4.308051) can0 12B#0000000000011FFD
(4.317982) can0 128#1388030000EC7842
(4.318143) can0 12E#0000000000000040
(4.318312) can0 290#0030000000000000
(4.318491) can0 12B#0000000000012FFC
(4.328217) can0 120#0000000000000080
(4.328379) can0 121#0000000000000080
(4.328557) can0 290#0040000000000000
(4.338460) can0 12B#0000000000011FFC
(4.338627) can0 128#1388030000EC7862
(4.338801) can0 12E#0000000000000060
(4.348702) can0 12A#1228012000000000
(4.348824) can0 290#0010000000000000
(4.348971) can0 12B#0000000000012FFD
(4.349134) can0 120#00000000000000A0
(4.358945) can0 121#00000000000000A0
(4.359107) can0 290#0030000000000000
(4.359271) can0 12B#0000000000011FFC
(4.369183) can0 128#1388030000EC7882
(4.369344) can0 12E#0000000000000080
(4.369515) can0 120#00000000000000C0
(4.379440) can0 121#00000000000000C0
(4.379607) can0 129#00000000000000C0
(4.379728) can0 128#1388030000EC78A2
(4.379874) can0 12E#00000000000000A0
(4.380037) can0 174#EF7F0000866A016A
(4.389669) can0 120#0000000000000020
(4.389832) can0 121#0000000000000020
(4.389994) can0 129#0000000000000020
(4.399912) can0 174#EC7F00009A6A03A5
(4.400074) can0 178#DC7F0220D7950349
(4.400236) can0 17C#00000000068003E1
(4.410155) can0 120#0000000000000040
(4.410317) can0 121#0000000000000040
(4.410487) can0 129#0000000000000040
(4.420398) can0 174#F57F0000986A04C3
(4.420567) can0 178#D67F0321D4950409
(4.420730) can0 174#F57F0000926A05D1
(4.430654) can0 178#D37F0423D095050A
(4.430818) can0 17C#000000001B800532
(4.430980) can0 129#0000000000000060
(4.431143) can0 541#0280000000000000
(4.431265) can0 174#F57F0000866A06E8
(4.440886) can0 178#D37F0523CD9506DA
(4.441048) can0 550#10000000000000B0
(4.441212) can0 300#0F00000000000000
(4.441335) can0 174#F87F00007F6A0718
(4.451127) can0 174#FD7F00007C6A081B
(4.451289) can0 178#B77F0724CA95080E
(4.451459) can0 17C#0000000029800898
(4.461370) can0 290#0010000000000000
(4.461540) can0 174#FD7F0000786A0900
(4.461746) can0 178#AF7F0823C5950976
(4.471621) can0 17C#0000000037800994
(4.471783) can0 290#0030000000000000
(4.471946) can0 174#FA7F0000766A0AA0
(4.481876) can0 178#B47F0920C4950A82
(4.482046) can0 17C#0000000042800A72
(4.482209) can0 174#FA7F0000746A0BBE
(4.482379) can0 178#C07F0A21C7950B51
(4.492099) can0 17C#0000000045800BE5
(4.492261) can0 290#0020000000000000
(4.492424) can0 174#FA7F0000796A0C68
(4.502341) can0 178#C57F0B29D0950C52
(4.502518) can0 17C#0000000040800C3F
(4.502680) can0 174#FA7F00007F6A0D70
(4.512587) can0 178#C57F0000D7950D47
(4.512750) can0 17C#0000000035800DE3
(4.512926) can0 174#F57F0000846A0E03
(4.522829) can0 178#CB7F0000D5950E62
(4.522991) can0 17C#000000002C800E5F
(4.523153) can0 290#0010000000000000
(4.533073) can0 174#EF7F0000866A0FCC
(4.533242) can0 178#CB7F00FFD0950F50
(4.533412) can0 17C#0000000027800FC2
(4.533577) can0 174#EC7F0000846A0093
(4.543329) can0 178#C57F0000CC95005E
(4.543499) can0 17C#000000002A8000FC
(4.543662) can0 290#0020000000000000
(4.553558) can0 300#0F00000000000000
(4.553680) can0 174#EA7F0000846A015D
(4.553837) can0 178#AF7F0120C49501B6
(4.553999) can0 174#EF7F0000846A024E
(4.563799) can0 178#9E7F0222BC9502C7
(4.563961) can0 17C#00000000328002D2
(4.564124) can0 290#0040000000000000
(4.574042) can0 174#F87F0000816A03ED
(4.574204) can0 178#907F0326B795037F
(4.574366) can0 17C#000000002180035B
(4.584285) can0 290#0010000000000000
(4.584448) can0 174#FA7F0000796A0480
(4.584617) can0 178#907F0425BB950497
(4.594543) can0 17C#0000000013800423
(4.594706) can0 290#0030000000000000
(4.594870) can0 174#00800000716A0559
(4.595032) can0 178#987F0520C59505A0
(4.604771) can0 17C#0000000017800538
(4.604940) can0 174#00800000746A06F7
(4.605103) can0 178#A67F0621D09506E2
(4.615014) can0 17C#000000002A8006B2
(4.615177) can0 174#FA7F0000796A07A7
(4.615338) can0 178#AF7F0721D095071A
(4.625257) can0 17C#000000003B800738
(4.625420) can0 174#F57F00007F6A0845
(4.625590) can0 178#AF7F0820C79508D2
(4.635508) can0 17C#00000000438008C7
(4.635670) can0 290#0020000000000000
(4.635835) can0 12B#0000000000012FFB
(4.645756) can0 174#F57F0000816A09D9
(4.645918) can0 178#AF7F0925BF950932
(4.646080) can0 17C#0000000040800956
(4.646243) can0 290#0030000000000000
(4.655986) can0 174#F57F0000826A0A72
(4.656148) can0 178#AC7F0A29BE950A11
(4.656309) can0 17C#0000000040800A71
(4.666229) can0 178#A97F0000C1950B1E
(4.666427) can0 290#0030000000000000
(4.666567) can0 12B#0000000000012FFB
(4.666673) can0 17C#0000000062800C0C
(4.666828) can0 290#0030000000000000
(4.666951) can0 12B#0000000000012FFA
(4.676479) can0 128#1388030000EC7822
(4.676641) can0 290#0030000000000000
(4.676763) can0 12B#0000000000012FFB
(4.676910) can0 120#0000000000000060
(4.686715) can0 121#0000000000000060
(4.686877) can0 290#0000000000000000
(4.687041) can0 12B#0000000000011FFA
(4.696971) can0 128#1388030000EC7842
(4.697132) can0 12E#0000000000000040
(4.697295) can0 290#0030000000000000
(4.697458) can0 12B#0000000000012FFB
(4.707200) can0 12A#1228012000000000
(4.707322) can0 290#0010000000000000
(4.707469) can0 12B#0000000000012FFA
(4.707642) can0 128#1388030000EC7862
(4.717443) can0 290#0030000000000000
(4.717614) can0 12B#0000000000012FFA
(4.717736) can0 120#00000000000000A0
(4.717883) can0 290#0010000000000000
(4.727686) can0 12B#0000000000011FFA
(4.727851) can0 128#1388030000EC7882
(4.728013) can0 12E#0000000000000080
(4.737929) can0 290#0020000000000000
(4.738093) can0 12B#0000000000012FFA
(4.738263) can0 120#00000000000000C0
(4.748180) can0 290#0010000000000000
(4.748343) can0 12B#0000000000012FFA
(4.748479) can0 128#1388030000EC78A2
(4.748625) can0 12E#00000000000000A0
(4.758435) can0 290#0010000000000000
(4.758566) can0 12B#0000000000012FFA
(4.758678) can0 120#0000000000000020
(4.758831) can0 290#0030000000000000
(4.759003) can0 12B#0000000000011FFA
(4.759165) can0 128#1388030000EC78C2
(4.768666) can0 12E#00000000000000C0
(4.768830) can0 290#0000000000000000
(4.768993) can0 12B#0000000000012FFA
(4.778902) can0 120#0000000000000040
(4.779064) can0 121#0000000000000040
(4.779226) can0 290#0010000000000000
(4.789144) can0 12B#0000000000012FFA
(4.789266) can0 128#1388030000EC7822
(4.789411) can0 12A#1228012000000000
(4.789537) can0 120#0000000000000060
(4.789683) can0 121#0000000000000060
(4.799387) can0 129#0000000000000060
(4.799517) can0 12B#0000000000011FFA
(4.799663) can0 128#1388030000EC7842
(4.799828) can0 12E#0000000000000040
(4.809644) can0 120#0000000000000080
(4.809806) can0 121#0000000000000080
(4.809968) can0 129#0000000000000080
(4.810130) can0 540#02000000110000E8
(4.819875) can0 174#FA7F0000766A0DF3
(4.820037) can0 178#CB7F0000BF950D1A
(4.820199) can0 120#00000000000000A0
(4.830116) can0 121#00000000000000A0
(4.830278) can0 129#00000000000000A0
(4.830484) can0 174#00800000736A0E95
(4.840359) can0 178#DC7F0122BB950E0B
(4.840530) can0 5A0#0069200000000049
(4.840693) can0 550#1000000000000030
(4.850602) can0 300#0F00000000000000
(4.850725) can0 174#FA7F00007C6A0FC6
(4.850871) can0 129#00000000000000C0
(4.851034) can0 174#EF7F00008D6A00F7
(4.860860) can0 178#F27F0332BE9500BB
(4.861022) can0 174#E47F0000976A01C8
(4.861184) can0 178#FD7F0420BF95017C
(4.861346) can0 17C#000000006C800184
(4.871097) can0 174#E47F0000976A02EF
(4.871259) can0 178#03800523C195026B
(4.871427) can0 17C#00000000838002B5
(4.881331) can0 290#0020000000000000
(4.881502) can0 12B#0000000000011FFA
(4.881632) can0 174#EF7F00008F6A03D3
(4.881778) can0 178#03800632C995037C
(4.891576) can0 17C#00000000938003B0
(4.891746) can0 174#F87F0000896A04B2
(4.891908) can0 178#00800721D29504A5
(4.901824) can0 17C#000000009680046A
(4.901987) can0 450#0000000000000000
(4.902118) can0 174#008000008C6A0554
(4.902264) can0 178#F87F0827DD950559
(4.912062) can0 17C#00000000938005FE
(4.912225) can0 174#008000008F6A06FF
(4.912387) can0 178#FA7F0000DB950608
(4.912563) can0 17C#00000000858006C4
(4.922324) can0 174#FD7F0000986A0736
(4.922494) can0 178#FA7F0120D29507B6
(4.922656) can0 17C#000000006C8007CA
(4.932547) can0 174#FA7F00009B6A088F
(4.932709) can0 178#F87F0000CA950883
(4.932880) can0 17C#00000000598008D0
(4.942788) can0 290#0020000000000000
(4.942911) can0 300#0F00000000000000
(4.943018) can0 174#FA7F0000956A099B
(4.943164) can0 178#F87F0112CC9509F3
(4.943326) can0 174#FA7F00008C6A0A27
(4.953031) can0 178#FA7F020FC9950A33
(4.953200) can0 17C#0000000069800AC2
(4.953371) can0 290#0050000000000000
(4.963274) can0 174#FA7F0000826A0B33
(4.963436) can0 178#F57F0302C4950BD2
(4.963607) can0 17C#0000000080800BCC
(4.973532) can0 290#0050000000000000
(4.973655) can0 174#FA7F0000796A0C68
(4.973801) can0 178#EF7F0405BF950C67
(4.973963) can0 17C#0000000094800C81
(4.974126) can0 174#00800000736A0DB2
(4.983760) can0 178#F87F0512BE950D79
(4.983923) can0 17C#000000009C800D90
(4.984085) can0 290#0040000000000000
(4.994003) can0 12B#0000000000012FF9
(4.994166) can0 174#FA7F0000766A0ED4
(4.994334) can0 178#08800614BE950E29
(5.004246) can0 17C#0000000098800EB1
(5.004408) can0 174#EF7F0000826A0FCA
(5.004576) can0 178#1480072FC1950FDB
(5.014497) can0 17C#0000000088800FB4
(5.014659) can0 290#0040000000000000
(5.014781) can0 174#EC7F0000946A008B
(5.014963) can0 178#16800802C495002A
(5.024746) can0 17C#000000007B80000B
(5.024908) can0 290#0010000000000000
(5.025071) can0 174#EA7F00009B6A01C3
(5.025233) can0 178#0E80090FC19501F0
(5.034975) can0 17C#0000000071800119
(5.035137) can0 290#0050000000000000
(5.035300) can0 174#EF7F0000976A02DA
(5.045218) can0 178#FD7F0A13BB95029E
(5.045379) can0 17C#00000000648002AF
(5.045550) can0 174#FA7F00008F6A035E
(5.055461) can0 178#F27F0B03BC95031A
(5.055630) can0 17C#0000000051800313
(5.055792) can0 174#00800000916A04D4
(5.065704) can0 178#F27F0C08C19504A9
(5.065866) can0 17C#000000004E8004DE
(5.066028) can0 290#0030000000000000
(5.075960) can0 178#FD7F0D2FC595053A
(5.076122) can0 17C#000000005F800554
(5.076284) can0 290#0010000000000000
(5.076447) can0 17C#000000007180064A
(5.086190) can0 290#0020000000000000
(5.086353) can0 12B#0000000000012FFA
(5.086523) can0 290#0000000000000000
(5.096433) can0 12B#0000000000012FF9
(5.096603) can0 12A#1228012000000000
(5.096723) can0 120#00000010000000D0
(5.096869) can0 290#0040000000000000
(5.106676) can0 12B#0000000000012FFA
(5.106840) can0 128#1388030000EC78A2
(5.107001) can0 290#0030000000000000
(5.116919) can0 12B#0000000000011FFA
(5.117081) can0 120#0000001000000030
(5.117242) can0 290#0030000000000000
(5.117365) can0 12B#0000000000012FF9
(5.127171) can0 128#1388030000EC78C2
(5.127332) can0 12E#00000000000000C0
(5.127503) can0 540#02000000110000E8
(5.127625) can0 290#0010000000000000
(5.137418) can0 12B#0000000000012FFA
(5.137589) can0 120#0000001000000050
(5.137750) can0 290#0050000000000000
(5.137914) can0 12B#0000000000012FFA
(5.138035) can0 128#1388030000EC7822
(5.147647) can0 290#0030000000000000
(5.147811) can0 12B#0000000000012FF9
(5.147974) can0 120#0000001000000070
(5.157893) can0 290#0040000000000000
(5.158056) can0 12B#0000000000012FFA
(5.158233) can0 128#1388030000EC7842
(5.168133) can0 290#0030000000000000
(5.168305) can0 12B#0000000000012FFA
(5.168433) can0 120#0000001000000090
(5.168582) can0 121#0000000000000080
(5.178376) can0 129#0000000000000080
(5.178553) can0 290#0030000000000000
(5.178684) can0 12B#0000000000012FFA
(5.178789) can0 128#1388030000EC7862
(5.178935) can0 12E#0000000000000060
(5.188633) can0 290#0030000000000000
(5.188762) can0 12B#0000000000011FF9
(5.188908) can0 12A#1228012000000000
(5.189030) can0 290#0030000000000000
(5.189136) can0 12B#0000000000012FFA
(5.189318) can0 128#1388030000EC7882
(5.189504) can0 12B#0000000000012FFA
(5.189625) can0 120#00000010000000D0
(5.198864) can0 121#00000000000000C0
(5.199026) can0 128#1388030000EC78A2
(5.199187) can0 12E#00000000000000A0
(5.209105) can0 540#02000000110000E8
(5.209228) can0 174#EF7F0000706A0593
(5.209374) can0 120#0000001000000030
(5.209540) can0 121#0000000000000020
(5.219348) can0 129#0000000000000020
(5.219519) can0 12A#1228012000000000
(5.219640) can0 12C#0000000000000000
(5.219746) can0 5A0#00692000000000C9
(5.219900) can0 120#0000001000000050
(5.229591) can0 121#0000000000000040
(5.229753) can0 129#0000000000000040
(5.229915) can0 174#EF7F0000826A0984
(5.239850) can0 178#14800000D59509A2
(5.240012) can0 17C#00000000678009EC
(5.240175) can0 121#0000000000000060
(5.240337) can0 129#0000000000000060
(5.250077) can0 174#EF7F0000846A0AA6
(5.250239) can0 178#11800120D4950A1E
(5.250401) can0 174#F57F0000866A0B69
(5.260320) can0 178#1C800222CD950BE7
(5.260488) can0 17C#000000004D800BE9
(5.260651) can0 550#1000000000000090
(5.270564) can0 174#FD7F0000896A0C6E
(5.270726) can0 178#2A800326C9950C93
(5.270888) can0 17C#0000000046800C3A
(5.280806) can0 174#00800000896A0D35
(5.280969) can0 178#2D800425CA950D3D
(5.281130) can0 17C#000000004B800DA2
(5.291052) can0 174#00800000846A0E97
(5.291214) can0 178#22800520CF950E76
(5.291382) can0 17C#000000004B800E85
(5.291551) can0 174#FD7F00007C6A0F48
(5.301308) can0 178#14800621D0950FD3
(5.301470) can0 17C#000000004B800F98
(5.301648) can0 174#F87F0000786A00C1
(5.311536) can0 178#0E800721D09500D3
(5.311712) can0 17C#000000004D800026
(5.311881) can0 290#0020000000000000
(5.321785) can0 300#0F00000000000000
(5.321908) can0 174#F57F0000766A0133
(5.322062) can0 178#0B800820D7950191
(5.322224) can0 174#FA7F0000766A0248
(5.332021) can0 178#0B800925D8950289
(5.332183) can0 17C#000000003F800257
(5.332345) can0 174#008000007B6A0318
(5.342279) can0 178#0B800A29D795037E
(5.342441) can0 17C#00000000308003CC
(5.342611) can0 174#008000007F6A044D
(5.352522) can0 178#08800000CF950436
(5.352684) can0 17C#000000002780040D
(5.352856) can0 174#FA7F0000816A0519
(5.353017) can0 178#0B800120CA950565
(5.362749) can0 17C#000000001E8005BB
(5.362912) can0 290#0040000000000000
(5.363075) can0 174#FA7F0000846A06B7
(5.372993) can0 178#06800000C7950601
(5.373163) can0 17C#0000000027800637
(5.373333) can0 174#FA7F0000896A072F
(5.383281) can0 178#00800120C2950766
(5.383463) can0 17C#000000004380077C
(5.383631) can0 290#0030000000000000
(5.393486) can0 12B#0000000000012FFA
(5.393608) can0 120#0000001000000090
(5.393762) can0 174#EF7F0000896A0819
(5.393930) can0 178#00800221BC9508BF
(5.403735) can0 17C#000000005C800859
(5.403905) can0 290#0030000000000000
(5.404027) can0 174#EC7F00008A6A096F
(5.404173) can0 178#FA7F0324B995095A
(5.404335) can0 17C#0000000062800965
(5.413964) can0 174#EC7F0000876A0ACD
(5.414126) can0 178#F27F042FBE950A08
(5.414288) can0 17C#000000005B800AE9
(5.424207) can0 290#0020000000000000
(5.424370) can0 300#0F00000000000000
(5.424499) can0 174#EF7F00007F6A0BB3
(5.424645) can0 178#EF7F0512CC950B4B
(5.434450) can0 17C#0000000050800B74
(5.434618) can0 174#F57F00007E6A0CBE
(5.434780) can0 178#F87F0624D8950C89
(5.444693) can0 17C#0000000046800C3A
(5.444860) can0 290#0020000000000000
(5.444983) can0 174#F27F00007F6A0DA2
(5.445129) can0 178#0B800726D8950D9E
(5.454950) can0 17C#0000000049800DA1
(5.455112) can0 174#EF7F0000846A0ED2
(5.455274) can0 178#14800820CF950EDB
(5.455436) can0 17C#0000000050800E1D
(5.465179) can0 174#F57F00008C6A0F12
(5.465341) can0 178#06800925C4950FFC
(5.465510) can0 17C#000000005B800F80
(5.475422) can0 290#0020000000000000
(5.475556) can0 17C#000000006F800015
(5.475718) can0 450#0000000000000000
(5.475846) can0 290#0010000000000000
(5.475994) can0 12B#0000000000012FFA
(5.476123) can0 128#1388030000EC7822
(5.485665) can0 12E#0000000000000020
(5.485829) can0 17C#000000007580011F
(5.485991) can0 290#0030000000000000
(5.495908) can0 12B#0000000000012FFA
(5.496029) can0 290#0020000000000000
(5.496177) can0 12B#0000000000012FFA
(5.496298) can0 128#1388030000EC7842
(5.496444) can0 290#0020000000000000
(5.496574) can0 12B#0000000000012FFA
(5.496679) can0 120#0000001000000090
(5.496784) can0 121#0000000000000080
(5.506151) can0 129#0000000000000080
(5.506313) can0 290#0040000000000000
(5.506484) can0 12B#0000000000012FFA
(5.506606) can0 128#1388030000EC7862
(5.516407) can0 12E#0000000000000060
(5.516578) can0 290#0040000000000000
(5.516701) can0 12B#0000000000012FFA
(5.516806) can0 120#00000010000000B0
(5.516952) can0 121#00000000000000A0
(5.517115) can0 290#0020000000000000
(5.526637) can0 12B#0000000000012FFA
(5.526758) can0 128#1388030000EC7882
(5.526904) can0 290#0020000000000000
(5.527026) can0 12B#0000000000012FFA
(5.527168) can0 120#00000010000000D0
(5.527330) can0 290#0030000000000000
(5.536882) can0 12B#0000000000012FFA
(5.537008) can0 128#1388030000EC78A2
(5.537156) can0 290#0030000000000000
(5.537292) can0 12B#0000000000012FFA
(5.537398) can0 12A#1228012000000000
(5.537512) can0 120#0000001000000030
(5.537658) can0 290#0030000000000000
(5.537782) can0 12B#0000000000012FFA
(5.537892) can0 128#1388030000EC78C2
(5.547123) can0 12E#00000000000000C0
(5.547285) can0 290#0030000000000000
(5.547408) can0 12B#0000000000013FFA
(5.547562) can0 120#0000001000000050
(5.557366) can0 290#0030000000000000
(5.557494) can0 12B#0000000000012FFA
(5.557640) can0 128#1388030000EC7822
(5.557802) can0 12E#0000000000000020
(5.567622) can0 12B#0000000000012FFA
(5.567744) can0 120#0000001000000070
(5.567890) can0 121#0000000000000060
(5.568052) can0 128#1388030000EC7842
(5.568221) can0 12E#0000000000000040
(5.577854) can0 12A#1228012000000000
(5.577975) can0 12C#0000000000000000
(5.578081) can0 120#0000001000000090
(5.578235) can0 121#0000000000000080
(5.578397) can0 129#0000000000000080
(5.578533) can0 174#F57F00008C6A00A9
(5.588094) can0 174#FA7F0000876A0168
(5.588264) can0 178#08800000BE950198
(5.588435) can0 17C#000000004D80013B
(5.598337) can0 120#00000010000000B0
(5.598514) can0 121#00000000000000A0
(5.598685) can0 129#00000000000000A0
(5.608580) can0 174#FD7F00007C6A03D4
(5.608750) can0 178#1180020FC79503E3
(5.608919) can0 17C#000000004B800304
(5.618840) can0 290#0010000000000000
(5.619003) can0 12B#0000000000013FFA
(5.619165) can0 121#00000000000000C0
(5.619327) can0 129#00000000000000C0
(5.629066) can0 550#10000000000000D0
(5.629230) can0 174#FA7F0000796A059D
(5.629392) can0 178#1F800405BF950532
(5.639309) can0 17C#00000000588005DE
(5.639479) can0 174#FA7F0000766A063C
(5.639641) can0 178#22800512C59506D9
(5.649554) can0 17C#00000000468006E8
(5.649716) can0 290#0010000000000000
(5.649839) can0 12B#0000000000012FFA
(5.649986) can0 174#FD7F0000796A0729
(5.659795) can0 178#27800614D09507B6
(5.659957) can0 17C#0000000035800731
(5.660120) can0 174#038000007F6A0836
(5.670041) can0 178#1F80072FD79508A0
(5.670203) can0 17C#000000003A80080C
(5.670366) can0 300#0F00000000000000
(5.670494) can0 174#038000008A6A092A
(5.670639) can0 178#14800802D79509F1
(5.680297) can0 174#FD7F0000916A0A34
(5.680459) can0 178#0880090FD7950AF1
(5.680627) can0 17C#0000000035800AB0
(5.690561) can0 290#0010000000000000
(5.690696) can0 174#F87F00008F6A0B0C
(5.690848) can0 178#00800A13D5950B74
(5.691017) can0 17C#0000000021800BB3
(5.700767) can0 290#0000000000000000
(5.700930) can0 174#F57F0000876A0CB5
(5.701092) can0 178#FD7F0B03D4950CA1
(5.711010) can0 17C#0000000021800CE0
(5.711173) can0 174#F57F00007E6A0DA3
(5.711334) can0 178#00800C08CD950D4C
(5.721253) can0 17C#0000000035800DE3
(5.721416) can0 174#F57F0000786A0E81
(5.721591) can0 178#0E800D2FC9950EB8
(5.731517) can0 17C#0000000049800E86
(5.731688) can0 174#F27F00007C6A0F14
(5.731856) can0 178#14800E07C1950F10
(5.732018) can0 17C#0000000056800F05
(5.741739) can0 174#EF7F0000846A0074
(5.741908) can0 178#16800F0DBE95000E
(5.742079) can0 17C#000000005E8000B2
(5.751982) can0 290#0010000000000000
(5.752145) can0 174#F57F0000846A01B8
(5.752307) can0 178#1C800002C19501A1
(5.762230) can0 17C#000000005F800120
(5.762400) can0 174#F57F00007C6A021B
(5.762570) can0 178#19800108C7950266
(5.772468) can0 17C#0000000059800202
(5.772636) can0 290#0040000000000000
(5.772807) can0 300#0F00000000000000
(5.772930) can0 174#F57F0000796A038F
(5.782724) can0 178#1C800000CC950339
(5.782894) can0 174#F87F0000816A04BE
(5.783056) can0 178#27800128D0950427
(5.783218) can0 17C#000000004B800457
(5.792953) can0 290#0010000000000000
(5.793123) can0 174#FA7F0000896A0515
(5.793294) can0 178#35800220CC950509
(5.803196) can0 17C#00000000468005CF
(5.803359) can0 290#0050000000000000
(5.803531) can0 174#FA7F00008C6A06BB
(5.813439) can0 178#38800321C2950636
(5.813607) can0 17C#0000000045800664
(5.813769) can0 290#0050000000000000
(5.813892) can0 12B#0000000000013FFB
(5.823682) can0 174#F57F0000926A07EB
(5.823847) can0 178#32800423BE95072D
(5.824009) can0 17C#000000004D800775
(5.833939) can0 174#F57F00008F6A08CD
(5.834101) can0 178#32800523BE9508FC
(5.834263) can0 17C#0000000056800856
(5.834425) can0 174#F57F0000896A09D5
(5.844168) can0 178#35800622BE95094C
(5.844330) can0 17C#000000005680094B
(5.844501) can0 290#0020000000000000
(5.854411) can0 178#30800724BF950AD3
(5.854578) can0 17C#0000000050800A69
(5.854741) can0 290#0040000000000000
(5.864654) can0 12B#0000000000012FFB
(5.864818) can0 128#1388030000EC7882
(5.864985) can0 17C#0000000051800BFB
(5.874898) can0 290#0030000000000000
(5.875061) can0 12B#0000000000012FFB
(5.875183) can0 120#00000010000000D0
(5.875329) can0 121#00000000000000C0
(5.875494) can0 129#00000000000000C0
(5.875612) can0 541#0280000000000000
(5.875719) can0 174#FA7F00007E6A0CE2
(5.885140) can0 290#0040000000000000
(5.885303) can0 12B#0000000000012FFB
(5.885425) can0 128#1388030000EC78A2
(5.885577) can0 290#0000000000000000
(5.895397) can0 12B#0000000000012FFB
(5.895526) can0 120#0000001000000030
(5.895672) can0 121#0000000000000020
(5.895836) can0 290#0040000000000000
(5.895999) can0 12B#0000000000013FFB
(5.905626) can0 128#1388030000EC78C2
(5.905787) can0 12E#00000000000000C0
(5.905950) can0 174#FA7F0000896A0FC7
(5.915871) can0 290#0040000000000000
(5.915994) can0 12B#0000000000012FFB
(5.916140) can0 120#0000001000000050
(5.916302) can0 290#0010000000000000
(5.926112) can0 12B#0000000000012FFB
(5.926234) can0 128#1388030000EC7822
(5.926379) can0 12E#0000000000000020
(5.926550) can0 290#0020000000000000
(5.936355) can0 12B#0000000000012FFB
(5.936490) can0 12A#1228012000000000
(5.936597) can0 290#0010000000000000
(5.936744) can0 12B#0000000000012FFB
(5.936866) can0 128#1388030000EC7842
(5.937012) can0 290#0040000000000000
(5.946611) can0 12B#0000000000012FFB
(5.946733) can0 120#0000001000000090
(5.946879) can0 290#0020000000000000
(5.947043) can0 12B#0000000000012FFB
(5.947164) can0 128#1388030000EC7862
(5.947310) can0 290#0020000000000000
(5.947432) can0 12B#0000000000012FFB
(5.947542) can0 120#00000010000000B0
(5.956843) can0 121#00000000000000A0
(5.957005) can0 290#0020000000000000
(5.957128) can0 12B#0000000000013FFB
(5.957274) can0 128#1388030000EC7882
(5.967084) can0 290#0030000000000000
(5.967247) can0 12B#0000000000012FFB
(5.967409) can0 120#00000010000000D0
(5.977327) can0 128#1388030000EC78A2
(5.977494) can0 12E#00000000000000A0
(5.977657) can0 174#F57F00007F6A0958
(5.987570) can0 178#24800721CD9509BC
(5.987732) can0 120#0000001000000030
(5.987894) can0 121#0000000000000020
(5.997827) can0 129#0000000000000020
(5.997990) can0 174#00800000866A0BFD
(5.998159) can0 178#22800925CD950B0D
(5.998329) can0 17C#000000001E800B1D
(6.008064) can0 120#0000001000000050
(6.008233) can0 121#0000000000000040
(6.008394) can0 129#0000000000000040
(6.018298) can0 550#1000000000000050
(6.018468) can0 174#FA7F0000866A0D7B
(6.018635) can0 178#0B800000C5950D2B
(6.028543) can0 17C#0000000035800DE3
(6.028712) can0 121#0000000000000060
(6.028874) can0 129#0000000000000060
(6.038784) can0 174#FA7F0000826A0E5A
(6.038982) can0 174#FD7F0000826A0FC9
(6.039159) can0 178#00800000C4950FAB
(6.049030) can0 17C#000000003D800FD5
(6.049192) can0 541#0280000000000000
(6.049315) can0 174#00800000876A00BD
(6.049461) can0 178#08800120C195006B
(6.049629) can0 17C#00000000348000ED
(6.059286) can0 550#1000000000000070
(6.059449) can0 300#0F00000000000000
(6.059577) can0 174#FD7F00008C6A0166
(6.059723) can0 178#0E800221C5950180
(6.069515) can0 17C#00000000308001F6
(6.069677) can0 174#FA7F0000896A0246
(6.069841) can0 178#11800324CC950278
(6.079756) can0 17C#0000000035800258
(6.079919) can0 174#F57F0000896A0307
(6.080087) can0 178#0B80042FCD950316
(6.089999) can0 17C#000000004580030D
(6.090162) can0 290#0010000000000000
(6.090325) can0 174#F57F0000866A04D2
(6.100242) can0 178#FD7F0512CA9504F6
(6.100404) can0 17C#00000000548004C9
(6.100574) can0 174#F57F0000846A05CC
(6.110507) can0 178#F27F0624C795058A
(6.110668) can0 17C#000000005C8005D8
(6.110832) can0 290#0010000000000000
(6.110954) can0 174#EF7F0000876A06B6
(6.111100) can0 178#FA7F0726C5950631
(6.120728) can0 17C#000000005B800675
(6.120891) can0 450#0000000000000000
(6.121014) can0 174#F27F0000866A077B
(6.121160) can0 178#03800820CA950790
(6.130971) can0 17C#00000000508007E8
(6.131133) can0 174#FA7F00007F6A0819
(6.131295) can0 178#11800925CD95081B
(6.141214) can0 17C#0000000050800853
(6.141377) can0 290#0030000000000000
(6.141555) can0 12B#0000000000012FFB
(6.141676) can0 128#1388030000EC7822
(6.151457) can0 174#008000007C6A0940
(6.151635) can0 178#24800000D29509FE
(6.151797) can0 17C#00000000618009E9
(6.161721) can0 174#008000007E6A0A64
(6.161883) can0 178#35800125D8950AC1
(6.162058) can0 17C#0000000078800A55
(6.162254) can0 290#0020000000000000
(6.171943) can0 12B#0000000000012FFB
(6.172064) can0 128#1388030000EC7842
(6.172210) can0 12E#0000000000000040
(6.172372) can0 12A#1228012000000000
(6.172499) can0 300#0F00000000000000
(6.172606) can0 174#FA7F00007E6A0BB1
(6.182186) can0 178#35800239DB950B19
(6.182355) can0 17C#0000000085800B45
(6.182534) can0 174#FA7F00007E6A0CE2
(6.192429) can0 178#27800321D7950C90
(6.192595) can0 17C#000000007A800C18
(6.192765) can0 290#0050000000000000
(6.202672) can0 12B#0000000000012FFC
(6.202848) can0 128#1388030000EC7862
(6.203017) can0 174#FA7F0000796A0D75
(6.212928) can0 178#14800420CD950D3D
(6.213097) can0 17C#0000000066800D17
(6.213267) can0 290#0010000000000000
(6.213466) can0 12B#0000000000012FFB
(6.223158) can0 120#00000010000000B0
(6.223319) can0 174#EF7F0000736A0ED0
(6.223488) can0 178#0B800000C5950E0C
(6.233401) can0 17C#000000004E800E0C
(6.233571) can0 290#0020000000000000
(6.233734) can0 12B#0000000000013FFC
(6.243643) can0 128#1388030000EC7882
(6.243805) can0 12E#0000000000000080
(6.243967) can0 174#EA7F0000766A0F70
(6.253890) can0 178#11800000BF950F87
(6.254052) can0 17C#0000000037800FDA
(6.254214) can0 290#0030000000000000
(6.264129) can0 12B#0000000000012FFC
(6.264292) can0 12A#1228012000000000
(6.264413) can0 174#E77F00007C6A0022
(6.264567) can0 178#24800122BF9500D9
(6.274386) can0 17C#000000002F800075
(6.274556) can0 450#0000000000000000
(6.274679) can0 174#EF7F0000846A0169
(6.274828) can0 178#35800220C79501FD
(6.274990) can0 17C#000000003580017F
(6.284615) can0 290#0030000000000000
(6.284738) can0 12B#0000000000012FFC
(6.284844) can0 174#F87F00008C6A0275
(6.284990) can0 178#3B800332CF9502BF
(6.285151) can0 17C#0000000048800295
(6.294860) can0 290#0040000000000000
(6.295023) can0 12B#0000000000012FFB
(6.295185) can0 128#1388030000EC78C2
(6.305101) can0 174#038000008C6A03FD
(6.305263) can0 178#35800420D59503BD
(6.305425) can0 17C#000000005F80031A
(6.315344) can0 178#2A800523DD9504D7
(6.315514) can0 17C#0000000069800464
(6.315677) can0 290#0000000000000000
(6.325601) can0 17C#0000000059800551
(6.325763) can0 450#0000000000000000
(6.325891) can0 290#0030000000000000
(6.326040) can0 290#0040000000000000
(6.326203) can0 12B#0000000000012FFC
(6.335832) can0 128#1388030000EC7842
(6.335993) can0 12E#0000000000000040
(6.336156) can0 290#0030000000000000
(6.346073) can0 12B#0000000000013FFC
(6.346235) can0 120#0000001000000090
(6.346397) can0 290#0030000000000000
(6.346527) can0 12B#0000000000012FFC
(6.356316) can0 128#1388030000EC7862
(6.356485) can0 290#0010000000000000
(6.356648) can0 12B#0000000000012FFC
(6.356770) can0 12A#1228012000000000
(6.356875) can0 120#00000010000000B0
(6.366560) can0 290#0030000000000000
(6.366723) can0 12B#0000000000012FFD
(6.366886) can0 128#1388030000EC7882
(6.376821) can0 290#0030000000000000
(6.376943) can0 12B#0000000000013FFC
(6.377089) can0 120#00000010000000D0
(6.377251) can0 121#00000000000000C0
(6.377413) can0 129#00000000000000C0
(6.387045) can0 290#0030000000000000
(6.387167) can0 12B#0000000000012FFC
(6.387314) can0 128#1388030000EC78A2
(6.388449) can0 290#0000000000000000
(6.397288) can0 12B#0000000000012FFC
(6.397414) can0 120#0000001000000030
(6.397571) can0 121#0000000000000020
(6.397733) can0 290#0010000000000000
(6.407538) can0 12B#0000000000012FFC
(6.407659) can0 128#1388030000EC78C2
(6.407805) can0 290#0050000000000000
(6.407968) can0 12B#0000000000013FFC
(6.417774) can0 120#0000001000000050
(6.417935) can0 290#0050000000000000
(6.418058) can0 12B#0000000000012FFC
(6.418211) can0 128#1388030000EC7822
(6.428019) can0 12B#0000000000012FFC
(6.428141) can0 120#0000001000000070
(6.428294) can0 121#0000000000000060
(6.428464) can0 129#0000000000000060
(6.428629) can0 12B#0000000000012FFC
(6.428757) can0 128#1388030000EC7842
(6.438281) can0 12E#0000000000000040
(6.438403) can0 120#0000001000000090
(6.438563) can0 121#0000000000000080
(6.438733) can0 129#0000000000000080
(6.448510) can0 12E#0000000000000060
(6.448680) can0 174#F57F00008F6A054C
(6.448844) can0 178#03800B03D29505F0
(6.458750) can0 120#00000010000000B0
(6.458918) can0 121#00000000000000A0
(6.459080) can0 129#00000000000000A0
(6.468988) can0 174#F87F0000866A060E
(6.469165) can0 174#FA7F00007B6A07A4
(6.469338) can0 178#03800D2FB4950766
(6.479231) can0 17C#0000000037800732
(6.479394) can0 290#0030000000000000
(6.479565) can0 121#00000000000000C0
(6.489496) can0 129#00000000000000C0
(6.489658) can0 541#0280000000000000
(6.489781) can0 550#10000000000000B0
(6.489929) can0 300#0F00000000000000
(6.490052) can0 174#008000007B6A09CA
(6.490198) can0 174#F87F00007F6A0A99
(6.499717) can0 178#0B800002C1950A59
(6.499880) can0 17C#0000000056800A6C
(6.500043) can0 290#0050000000000000
(6.509960) can0 174#F57F0000876A0BE6
(6.510122) can0 178#0B800108C1950B95
(6.510284) can0 17C#000000005C800B7E
(6.520203) can0 174#F57F0000916A0CA8
(6.520365) can0 178#00800000BF950C44
(6.520536) can0 17C#000000005B800CA7
(6.530446) can0 290#0050000000000000
(6.530574) can0 174#FA7F0000916A0DE9
(6.530720) can0 178#F87F0128C2950D5A
(6.530882) can0 17C#0000000050800D3A
(6.540703) can0 174#038000008C6A0E7C
(6.540866) can0 178#06800220C1950E72
(6.541028) can0 17C#0000000045800E8C
(6.541190) can0 174#06800000876A0FD5
(6.550932) can0 178#16800321BC950FEC
(6.551094) can0 17C#0000000042800F1B
(6.551263) can0 174#068000007F6A00EA
(6.561175) can0 178#1C800423BC950013
(6.561337) can0 17C#00000000428000A0
(6.561506) can0 290#0020000000000000
(6.571512) can0 12B#0000000000012FFC
(6.571669) can0 128#1388030000EC7862
(6.571820) can0 12E#0000000000000060
(6.571943) can0 174#06800000786A017D
(6.572089) can0 178#14800523BE9501B5
(6.581661) can0 17C#00000000408001BE
(6.581832) can0 290#0010000000000000
(6.582002) can0 174#06800000796A02D5
(6.591917) can0 178#08800622C195027D
(6.592079) can0 17C#000000004680029C
(6.592242) can0 290#0030000000000000
(6.592405) can0 12B#0000000000012FFC
(6.592535) can0 300#0F00000000000000
(6.592642) can0 174#008000007F6A031E
(6.602147) can0 178#00800724C19503B1
(6.602317) can0 174#FA7F0000876A0401
(6.602493) can0 178#06800823C19504B9
(6.612390) can0 17C#000000006D800462
(6.612560) can0 290#0030000000000000
(6.612691) can0 174#F57F0000866A05CF
(6.612839) can0 178#0B800920BC95055F
(6.622633) can0 17C#000000006F80057C
(6.622795) can0 290#0030000000000000
(6.622918) can0 174#F57F00007E6A066C
(6.623064) can0 178#08800A21BB950636
(6.632878) can0 17C#000000006D800658
(6.633048) can0 290#0010000000000000
(6.633217) can0 12B#0000000000012FFC
(6.633339) can0 128#1388030000EC78C2
(6.643119) can0 174#F57F0000746A077E
(6.643281) can0 178#00800B29C1950748
(6.643443) can0 17C#000000006A8007CF
(6.653375) can0 290#0030000000000000
(6.653546) can0 12B#0000000000012FFC
(6.653668) can0 12A#1228012000000000
(6.653781) can0 120#0000001000000050
(6.653927) can0 121#0000000000000040
(6.654089) can0 174#F57F0000766A08C6
(6.663604) can0 178#00800000C995087D
(6.663767) can0 17C#00000000618008F4
(6.663930) can0 450#0000000000000000
(6.664052) can0 174#F27F00007E6A0959
(6.673850) can0 178#06800000CC95093A
(6.674012) can0 17C#000000005080094E
(6.674175) can0 174#EF7F0000816A0A2F
(6.684090) can0 178#088000FFCD950A35
(6.684253) can0 17C#0000000045800AF8
(6.684415) can0 174#F27F00007F6A0BEC
(6.694333) can0 178#06800000CC950B00
(6.694504) can0 17C#0000000046800B69
(6.694667) can0 174#F87F00007F6A0CD7
(6.704590) can0 178#FD7F0120CA950CE3
(6.704752) can0 17C#000000004D800CBA
(6.704921) can0 290#0020000000000000
(6.705085) can0 174#FD7F00007C6A0D72
(6.714820) can0 178#F87F0222CD950DD9
(6.714982) can0 17C#000000004D800DA7
(6.715145) can0 178#F57F0326D2950EA2
(6.725062) can0 17C#0000000046800E00
(6.725225) can0 290#0010000000000000
(6.725388) can0 17C#000000003F800FD6
(6.735305) can0 290#0030000000000000
(6.735468) can0 12B#0000000000012FFC
(6.735595) can0 290#0010000000000000
(6.735778) can0 12B#0000000000012FFB
(6.745550) can0 128#1388030000EC78A2
(6.745711) can0 290#0040000000000000
(6.745874) can0 12B#0000000000012FFC
(6.755805) can0 12A#1228012000000000
(6.755926) can0 120#0000001000000030
(6.756072) can0 121#0000000000000020
(6.756235) can0 290#0010000000000000
(6.756398) can0 12B#0000000000012FFB
(6.766034) can0 128#1388030000EC78C2
(6.766195) can0 12E#00000000000000C0
(6.766358) can0 290#0010000000000000
(6.766488) can0 12B#0000000000013FFC
(6.776277) can0 120#0000001000000050
(6.776439) can0 290#0030000000000000
(6.776608) can0 12B#0000000000012FFB
(6.786521) can0 128#1388030000EC7822
(6.786689) can0 290#0030000000000000
(6.786812) can0 12B#0000000000012FFB
(6.786918) can0 120#0000001000000070
(6.787064) can0 290#0010000000000000
(6.796763) can0 12B#0000000000012FFC
(6.796925) can0 128#1388030000EC7842
(6.797087) can0 290#0020000000000000
(6.807009) can0 12B#0000000000013FFB
(6.807171) can0 120#0000001000000090
(6.807333) can0 121#0000000000000080
(6.807510) can0 129#0000000000000080
(6.817265) can0 290#0010000000000000
(6.817428) can0 12B#0000000000012FFC
(6.817596) can0 128#1388030000EC7862
(6.827498) can0 12E#0000000000000060
(6.827660) can0 290#0030000000000000
(6.827829) can0 12B#0000000000012FFB
(6.837735) can0 120#00000010000000B0
(6.837897) can0 290#0050000000000000
(6.838060) can0 12B#0000000000012FFB
(6.838189) can0 128#1388030000EC7882
(6.847978) can0 12E#0000000000000080
(6.848141) can0 12B#0000000000013FFC
(6.848310) can0 12A#1228012000000000
(6.848437) can0 120#00000010000000D0
(6.858226) can0 12B#0000000000012FFB
(6.858388) can0 128#1388030000EC78A2
(6.858565) can0 12E#00000000000000A0
(6.868490) can0 174#F87F0000896A0D47
(6.868659) can0 120#0000001000000030
(6.868826) can0 121#0000000000000020
(6.868988) can0 129#0000000000000020
(6.878712) can0 174#FA7F0000876A0ED3
(6.878874) can0 178#00800624CC950EDF
(6.879036) can0 17C#0000000066800E30
(6.888950) can0 12E#00000000000000C0
(6.889112) can0 540#02000000110000E9
(6.889276) can0 174#FA7F00007F6A0F4A
(6.899192) can0 120#0000001000000050
(6.899354) can0 121#0000000000000040
(6.899525) can0 129#0000000000000040
(6.909436) can0 12C#0000000000000000
(6.909566) can0 5A0#00692000000000A9
(6.909713) can0 550#1000000000000030
(6.909878) can0 121#0000000000000060
(6.919692) can0 129#0000000000000060
(6.919859) can0 174#FA7F0000876A024F
(6.921030) can0 178#11800000D09502D0
(6.921303) can0 174#008000008F6A0396
(6.929921) can0 178#0B800125CF950371
(6.930095) can0 17C#00000000308003CC
(6.930258) can0 174#008000008D6A04C6
(6.940164) can0 178#08800239C9950489
(6.940326) can0 17C#0000000038800493
(6.940494) can0 174#FD7F0000866A051D
(6.950407) can0 178#0B800321C59505AA
(6.950582) can0 17C#000000004B80054A
(6.950745) can0 174#FA7F00007C6A0633
(6.960650) can0 178#08800420C59506FC
(6.960813) can0 17C#00000000568006F0
(6.960975) can0 174#FD7F0000796A0729
(6.970908) can0 178#00800000C79507CF
(6.971071) can0 17C#000000004E8007F9
(6.971234) can0 290#0040000000000000
(6.971405) can0 174#038000007C6A08BA
(6.981136) can0 178#FD7F0000C29508BB
(6.981298) can0 17C#000000004080084B
(6.981461) can0 290#0040000000000000
(6.981598) can0 12B#0000000000012FFB
(6.981704) can0 174#038000007F6A092B
(6.991386) can0 178#F57F0122BF9509BE
(6.991557) can0 17C#000000003A800911
(6.991726) can0 290#0000000000000000
(7.001627) can0 12B#0000000000012FFB
(7.001748) can0 174#FA7F0000866A0A28
(7.001900) can0 178#F87F0220BE950A69
(7.002069) can0 17C#0000000032800A3A
(7.011871) can0 300#0F00000000000000
(7.011993) can0 174#F57F0000876A0BE6
(7.012139) can0 178#06800332BE950BBD
(7.012301) can0 174#EF7F0000826A0CED
(7.022112) can0 178#0B800420C4950C46
(7.022280) can0 17C#000000001C800C4D
(7.022442) can0 174#F87F00007B6A0DCC
(7.032365) can0 178#0B800523C9950D0E
(7.032535) can0 17C#0000000026800D77
(7.032705) can0 290#0020000000000000
(7.032876) can0 12B#0000000000012FFB
(7.032997) can0 174#00800000786A0E15
(7.042594) can0 178#0B800632CA950EA3
(7.042755) can0 17C#0000000037800EC7
(7.042918) can0 174#008000007C6A0F0E
